# GHZ S RI R 50
1	-0.04433100386818	-0.0444465789415748	-0.0540046495989876	-0.0325225713880924	-0.054057182615129	-0.03254061253138	-0.0163942225026734	0.0413790629639565
1.0005	-0.0445250038032958	-0.0442748286190068	-0.054148804747458	-0.0322721025331855	-0.0542119835106498	-0.0322848070751875	-0.0163271284301849	0.0414370392960059
1.001	-0.0447084476937982	-0.0440726693837487	-0.0542851024272458	-0.0320048226564117	-0.0543561578541137	-0.0320251538966203	-0.0162799433037817	0.0414981908268631
1.0015	-0.0448803549536851	-0.0438771253048607	-0.0544228328548329	-0.0317345401721528	-0.0544941958427613	-0.0317586212009602	-0.0162115226566797	0.0415623627349172
1.002	-0.045056489556104	-0.0436792516285302	-0.0545777137854304	-0.0314774709119678	-0.0546261516288173	-0.0314932659727317	-0.0161483760271891	0.0416231517979348
1.0025	-0.0452445605001488	-0.0434792688181432	-0.0547061606388559	-0.0312075606563864	-0.0547600451322652	-0.0312258233541734	-0.0160874752069667	0.0416783824784174
1.003	-0.0454240703538777	-0.0432906417758433	-0.0548502746199082	-0.0309502788988691	-0.0549047232012582	-0.0309628394993872	-0.0160118270087999	0.0417481476601892
1.0035	-0.04558818270996	-0.0430847575792158	-0.0549873849798097	-0.0306850213428058	-0.0550317482186191	-0.0307039197267692	-0.0159667386635466	0.0418037041012114
1.004	-0.0457697624366377	-0.0428845879465208	-0.055121964142568	-0.0304243709115919	-0.0551789782836892	-0.0304365608965597	-0.015891082638037	0.0418689387905613
1.0045	-0.0459662060490825	-0.0426875503608318	-0.0552550259655385	-0.0301494780994632	-0.055302377751431	-0.0301740168725802	-0.0158456754923155	0.0419237874152843
1.005	-0.0461324660830116	-0.0424911903323918	-0.0553951408032785	-0.0298921177660959	-0.0554397047032545	-0.0298971377994327	-0.0157738190367457	0.0419947558748508
1.0055	-0.0463062041010141	-0.0422811007207976	-0.0555166373653971	-0.0296152650006314	-0.055558892591938	-0.0296212839760482	-0.0157099514163243	0.0420457272333655
1.006	-0.0464669381686887	-0.0420757112208205	-0.0556437115120909	-0.0293510668915514	-0.0556975921686983	-0.029361103670935	-0.0156520805806908	0.0421152465305083
1.0065	-0.0466535676787651	-0.0418746711471022	-0.0557693920474681	-0.0290737130232344	-0.0558184152346956	-0.029088739865199	-0.0155899540397604	0.0421629018619723
1.007	-0.0468381887450612	-0.0416769787555659	-0.0559019731256436	-0.0288103261362907	-0.0559458333532425	-0.0288298309949067	-0.0155333320391067	0.0422262715655956
1.0075	-0.0469968973896152	-0.0414692594645235	-0.0560219356985631	-0.0285433220669549	-0.0560791888235639	-0.0285583920624851	-0.01545559707553	0.0423031379364802
1.008	-0.0471588792621988	-0.0412569851584636	-0.0561450356924759	-0.0282660870122211	-0.0562027635223209	-0.0282890234144782	-0.0154056421943196	0.0423642109899763
1.0085	-0.0473382025588379	-0.0410577931315187	-0.0562670603386887	-0.0280034527097163	-0.0563238444086044	-0.0280151124508402	-0.015342209438667	0.0424319649457309
1.009	-0.0475034904202285	-0.0408423942449686	-0.0563905231142941	-0.0277318753347907	-0.0564407369033967	-0.0277401221218243	-0.0152903675232257	0.0425027824081356
1.0095	-0.0476658277309047	-0.0406403273426855	-0.0565175747272771	-0.0274584852679924	-0.0565634308217327	-0.0274681388042412	-0.0152191985122537	0.0425675630698991
1.01	-0.0478300579080982	-0.0404238991485371	-0.0566376273348928	-0.0271898997229371	-0.0566771143259008	-0.0271918925689512	-0.0151691192420937	0.042616221408161
1.0105	-0.0479906607862502	-0.040215296420376	-0.0567523897400641	-0.0269219198821938	-0.0567969966497544	-0.0269282319940733	-0.015100835536835	0.0426933530844522
1.011	-0.0481598090341437	-0.040003831997219	-0.0568732749440122	-0.0266401951660375	-0.0569111667273055	-0.0266602040923348	-0.0150280660692321	0.0427533395888419
1.0115	-0.0483205291723681	-0.0397844739760504	-0.0569839192863317	-0.0263774309663307	-0.0570271729418503	-0.0263865828778919	-0.0149668455275599	0.042822303939076
1.012	-0.048487756896191	-0.0395855330442162	-0.0570930394919564	-0.0261061141487641	-0.057143898231391	-0.0261103397391161	-0.014921770343992	0.042884820044673
1.0125	-0.0486514577955209	-0.039364725906456	-0.057202551322094	-0.0258286052506346	-0.0572559516064567	-0.0258352846833999	-0.0148477580140258	0.0429303917143467
1.013	-0.0488161078989505	-0.0391542050207104	-0.0573070108630383	-0.0255513591180716	-0.0573601555096373	-0.0255547283289751	-0.0147851889387668	0.0429886307836494
1.0135	-0.0489762948540283	-0.0389311539808618	-0.0574220432232506	-0.0252780714301051	-0.0574625653430804	-0.0252768673457122	-0.0147154534846505	0.0430756536402989
1.014	-0.0491352887258193	-0.0387248679325651	-0.0575332005318356	-0.025007782128192	-0.0575737020087392	-0.0250005997789475	-0.014663145280423	0.0431457029585267
1.0145	-0.0492957029051287	-0.0385060741983326	-0.0576402722163411	-0.0247213903126915	-0.0576818005348813	-0.024731789881505	-0.0145928923594715	0.043201512877339
1.015	-0.0494432632638065	-0.0382918861485457	-0.0577369148929343	-0.0244490470302475	-0.0577911200156196	-0.0244510198976242	-0.014533750808025	0.0432598695148846
1.0155	-0.0496098556362132	-0.038080327858401	-0.0578518867251408	-0.024162791614318	-0.0578825876856925	-0.0241770974867989	-0.0144617086296496	0.0433187931429602
1.016	-0.0497538932436067	-0.037863389073975	-0.057951902198696	-0.0238844956453487	-0.057988942298655	-0.0238961916578909	-0.0143940198007496	0.0433985374597491
1.0165	-0.0499258615283799	-0.0376473474064169	-0.058067068508433	-0.0236150736517521	-0.0580935200118767	-0.0236238761173013	-0.0143296426824247	0.0434611214500102
1.017	-0.0500636563486012	-0.0374230307106182	-0.058148694402088	-0.0233431977486334	-0.0581890446580734	-0.0233372972453982	-0.0142668525680923	0.043521355465278
1.0175	-0.0502176815468538	-0.0371990115629673	-0.0582448660800898	-0.0230536905253122	-0.0582802670043185	-0.0230632894855591	-0.0141973648439577	0.0435809933885373
1.018	-0.0503675101066191	-0.0369814720593527	-0.0583396048520814	-0.0227842732848408	-0.0583915133862098	-0.0227826455958869	-0.0141362653254581	0.0436503404925187
1.0185	-0.0505264883725658	-0.0367595928278202	-0.058439290597146	-0.0225080091817804	-0.0584902197365029	-0.0225156003072234	-0.0140755868184738	0.0437206698047142
1.019	-0.0506805854801559	-0.0365318597428143	-0.058534285282516	-0.0222265427149555	-0.0585827950308635	-0.0222264676658537	-0.0140244584812489	0.0437787878283593
1.0195	-0.0508167348322245	-0.036317322988644	-0.0586289161712354	-0.0219422662167189	-0.0586703782511471	-0.0219526775300596	-0.0139442107728702	0.0438557175618482
1.02	-0.0509694200026202	-0.0361068598885404	-0.0587170533072938	-0.0216568885817725	-0.0587650073023129	-0.0216690769666842	-0.0138798438357895	0.0439255400080553
1.0205	-0.0511192450344431	-0.0358696955737017	-0.0588055039403097	-0.0213727631141724	-0.0588517392701425	-0.0213879178838706	-0.0138150234357688	0.0439878195567702
1.021	-0.0512671650297233	-0.0356640439284108	-0.0588948136554548	-0.0211074380380141	-0.0589440875752542	-0.0211042728757156	-0.0137442793359179	0.0440548288208418
1.0215	-0.0514154438390759	-0.0354364699491949	-0.058971148284949	-0.0208199291568948	-0.0590285854110825	-0.0208331055726263	-0.0136752074215799	0.0441227646917375
1.022	-0.0515610681943789	-0.0351972869059173	-0.0590685419680162	-0.0205359385460002	-0.0591125397507274	-0.0205385256095549	-0.0136233418845809	0.044186167285569
1.0225	-0.0516997918049012	-0.0349825383755147	-0.0591602259848307	-0.0202679388715546	-0.0591974420693505	-0.0202539076486918	-0.0135469819913803	0.0442555078413836
1.023	-0.0518513812746371	-0.0347395530377961	-0.0592472044337974	-0.0199816594980085	-0.0592822281330641	-0.0199761449581844	-0.0134861792729491	0.0443344160275746
1.0235	-0.0519915235944976	-0.0345235570674947	-0.0593239606008952	-0.019690150991925	-0.0593664493152435	-0.0196961331171845	-0.0134223394504149	0.044394287624527
1.024	-0.052127137388508	-0.0342987900078063	-0.05940618085405	-0.0194159930806214	-0.0594527803268931	-0.019419410417871	-0.0133482564469139	0.044468805928093
1.0245	-0.0522714001042281	-0.0340615094914989	-0.0594938722855783	-0.0191261414596645	-0.0595277886863091	-0.0191297838190813	-0.0132929272046521	0.044538528479537
1.025	-0.0523995247870246	-0.0338314356634053	-0.0595788804327975	-0.0188519661714951	-0.0596119942908259	-0.0188450868500024	-0.0132221519367854	0.0446073488597738
1.0255	-0.0525360780089064	-0.0336059969278388	-0.0596494698739041	-0.0185623594895868	-0.0596867756962933	-0.0185644677819188	-0.0131472718027016	0.0446668218684898
1.026	-0.0526712131832914	-0.0333785831054713	-0.0597260674085761	-0.0182817198684428	-0.0597610887665276	-0.0182860099379873	-0.0130721324990148	0.044757267601541
1.0265	-0.05279907250861	-0.0331517580109347	-0.0598079298232461	-0.0180056588531705	-0.0598289166108618	-0.0179997014771641	-0.0130101424620101	0.0448098081405098
1.027	-0.0529382964567483	-0.032913613431531	-0.0598814808931893	-0.0177169971619209	-0.0599096460442579	-0.0177076460402794	-0.0129343967719146	0.0448763811775323
1.0275	-0.0530843972331362	-0.0326857581170831	-0.0599509651067324	-0.0174339683509683	-0.0599813126677531	-0.0174284426206517	-0.0128693947441075	0.0449466650906963
1.028	-0.0532205975269549	-0.0324543648211969	-0.0600252768260668	-0.0171587053577118	-0.0600554828101086	-0.0171494566435509	-0.0127929648998205	0.0450312649297376
1.0285	-0.0533489575619359	-0.0322224506930356	-0.0600949961460325	-0.0168644537378796	-0.0601270592767596	-0.0168646283387934	-0.0127404614175962	0.045095191758828
1.029	-0.0534703398835851	-0.0319809090950262	-0.0601587190757546	-0.0165715540084027	-0.0601958214259825	-0.0165711672179284	-0.0126645103069841	0.0451565184031808
1.0295	-0.0536077719292453	-0.0317439526968745	-0.0602057473685831	-0.0162906216499359	-0.0602633623491006	-0.0162936652289611	-0.0125855683912743	0.0452296405264104
1.03	-0.0537275213843064	-0.0315143755563752	-0.0602786652465171	-0.0160000923856447	-0.0603225597623131	-0.0160030733643751	-0.0125192090301858	0.0453027888344465
1.0305	-0.0538584629786541	-0.0312812278986433	-0.0603471863833509	-0.0157271742223483	-0.060387707574948	-0.0157220873566206	-0.012444227989825	0.0453756475954611
1.031	-0.05398340553437	-0.0310495422276719	-0.0604046023859368	-0.0154406125013785	-0.0604566855302825	-0.0154364352328685	-0.0123798112551687	0.0454380441895368
1.0315	-0.0541311155541606	-0.0308093377136378	-0.0604582066978055	-0.0151495837907342	-0.0605160167870392	-0.0151504725223784	-0.0123022001205853	0.0455090994689875
1.032	-0.0542443096987244	-0.0305729739324035	-0.0605212842963931	-0.0148621396812752	-0.0605712459860668	-0.0148608111383301	-0.0122235496514599	0.0455891605873481
1.0325	-0.0543656474209375	-0.0303363753045702	-0.0605811639534462	-0.0145769154998977	-0.0606329842976225	-0.0145659359878284	-0.0121548107094033	0.0456536496622854
1.033	-0.0544914730773895	-0.0300936881660856	-0.0606472963815409	-0.0142915643148625	-0.0606909688217499	-0.0142814881597464	-0.0120846723055904	0.0457288346975226
1.0335	-0.0546190759021062	-0.0298668642393534	-0.0607085294693254	-0.0140128082717147	-0.0607332497907044	-0.0140000488402565	-0.0120064589675494	0.0457963617800597
1.034	-0.0547357780457382	-0.0296314599291523	-0.0607506879835027	-0.0137156161095308	-0.0607949335065528	-0.0137107220577329	-0.0119308326550756	0.0458621415994167
1.0345	-0.0548648695165493	-0.0293971342477434	-0.0608018724531286	-0.0134278009479249	-0.0608423536261476	-0.0134183092376531	-0.0118488184399032	0.0459399317069809
1.035	-0.0549782650933926	-0.0291619761616549	-0.0608653227006441	-0.0131428071820644	-0.0608979554909564	-0.0131346869038701	-0.0117783307396915	0.0460200350342981
1.0355	-0.0551078980315366	-0.0289212685758265	-0.0609142726728384	-0.0128575760753643	-0.0609603511645414	-0.0128441389837808	-0.0117036160225093	0.04609437824375
1.036	-0.0552212744640129	-0.0286626541912104	-0.060961117994875	-0.0125589110558305	-0.0610028701361808	-0.0125577615353022	-0.0116278739544445	0.0461631866288954
1.0365	-0.0553392713527317	-0.0284278610633944	-0.0610280710676679	-0.012277955032863	-0.0610477855755482	-0.0122696603851014	-0.0115536151971861	0.046245844603582
1.037	-0.055458107523007	-0.0281916152069383	-0.0610659827051685	-0.0119845620353979	-0.0611011934086405	-0.0119883829668843	-0.0114817581181224	0.0463145381268121
1.0375	-0.0555804910646405	-0.0279486304789592	-0.0611007764004352	-0.0117058527415883	-0.0611425057889389	-0.0116997539871383	-0.0113979969552906	0.0463896709182757
1.038	-0.055686346353463	-0.0277024404230446	-0.0611579404253139	-0.0114107314068052	-0.0611889453053713	-0.0114075470113914	-0.0113185295475856	0.0464567321757258
1.0385	-0.0557950938452983	-0.0274458938966967	-0.0611920127689345	-0.0111238596911049	-0.0612292547061674	-0.0111159100154545	-0.0112289423495901	0.0465303543092813
1.039	-0.0559059877188203	-0.0272108574667105	-0.0612295055426188	-0.0108399411797852	-0.0612623914704661	-0.0108275137930578	-0.0111480730325897	0.0466044979094512
1.0395	-0.0560132439667737	-0.0269606767942663	-0.0612668064915259	-0.010537546201036	-0.0613064421642833	-0.0105362684168118	-0.0110802757933448	0.046690277056279
1.04	-0.0561174301590958	-0.0267217699290965	-0.0613040396543358	-0.0102484825930036	-0.0613555471739569	-0.0102458156365963	-0.0109828511714879	0.0467565511874167
1.0405	-0.0562225157784198	-0.0264777338821181	-0.0613412530895121	-0.00996591469064007	-0.0613897664976503	-0.00995783577675184	-0.0109120428383748	0.0468018598507218
1.041	-0.056335947932436	-0.0262317437453325	-0.0613643064116593	-0.00968265038833507	-0.0614258112773946	-0.00967090771818676	-0.0108297766801518	0.0468974269917164
1.0415	-0.0564530423148525	-0.0259852453892331	-0.0614117966831416	-0.0093842086836711	-0.0614506851626098	-0.00938212470666219	-0.010752334185339	0.0469641951414302
1.042	-0.0565513037707443	-0.0257385963456153	-0.0614345120264001	-0.00910015856650268	-0.0614876691018882	-0.00908468788823567	-0.0106670826509953	0.0470482723059099
1.0425	-0.0566589730469759	-0.0254949933772421	-0.0614739676968038	-0.00880956646319529	-0.0615239992672804	-0.00880765641315106	-0.0105775818712075	0.047111960757513
1.043	-0.0567657742915949	-0.0252457589152044	-0.0614946459147874	-0.00851894717592067	-0.0615481184273437	-0.0085019931996323	-0.010507230791967	0.0471782861643795
1.0435	-0.0568701914141434	-0.024999843008725	-0.0615356162943347	-0.00822548349285501	-0.0615735276537866	-0.00821679365981038	-0.0104055625230043	0.0472539549404349
1.044	-0.0569749023020995	-0.024748092423066	-0.0615514526024226	-0.00793344989291239	-0.0615998010703381	-0.00792742437208312	-0.0103262346652086	0.0473339890867657
1.0445	-0.0570667110041913	-0.0244838038060938	-0.0615958321335052	-0.00764598358730402	-0.061628673170154	-0.00764236990333425	-0.0102463311250167	0.0474245445990567
1.045	-0.057162794594448	-0.0242466049979302	-0.0616118022928474	-0.00735390371654814	-0.0616556063615739	-0.00734892059570254	-0.0101567222088155	0.0474998285774386
1.0455	-0.0572670364663036	-0.024006261047557	-0.0616426984828283	-0.00707063449868187	-0.0616801511301356	-0.00705673003517961	-0.0100660136261464	0.047573026080272
1.046	-0.0573704988931353	-0.0237484682799953	-0.0616710262275489	-0.00678598124931771	-0.061699557487518	-0.00676518516377707	-0.00997969002476553	0.0476260379074038
1.0465	-0.0574576455033509	-0.0235040326864396	-0.0616867903587697	-0.0064896296674063	-0.0617201859055635	-0.00648114128158753	-0.00988916120025348	0.0477012022552319
1.047	-0.0575573393951288	-0.0232549644609493	-0.0617157592004938	-0.00620140490729163	-0.0617423690612004	-0.00619010466425206	-0.00980518401815591	0.0477874591078136
1.0475	-0.0576515840295997	-0.0230040132630683	-0.0617135225693461	-0.00591047641314933	-0.0617500971900146	-0.00589609683616792	-0.00970181060573911	0.0478415719737255
1.048	-0.0577586110223303	-0.0227587282727126	-0.0617332803333129	-0.00561820585215628	-0.0617666366062313	-0.00559999175694652	-0.0096225225352245	0.0479189116855575
1.0485	-0.0578366845094123	-0.0224956703079328	-0.0617522776607804	-0.00532663380229829	-0.0617819523026709	-0.00531582593739447	-0.0095387410812575	0.048002625225175
1.049	-0.0579264367387273	-0.0222479307196156	-0.0617563509072998	-0.00503422487346039	-0.0618043786615277	-0.00502809940463181	-0.00945000647308922	0.0480791394852685
1.0495	-0.0580161175047004	-0.0219908966808528	-0.0617921118619135	-0.00474874657413535	-0.0618080575873181	-0.00472642199108798	-0.00934276055314886	0.0481393596485639
1.05	-0.0581126946221349	-0.0217401645457231	-0.0617872843459291	-0.00445853384420002	-0.0618217806713632	-0.00444024564095238	-0.00925387645832097	0.0482156618901185
1.0505	-0.0581993835181925	-0.0214872619986222	-0.0617843423273669	-0.00416400823456787	-0.0618300985225811	-0.00415450847817459	-0.00916683216844046	0.0482878989580995
1.051	-0.058296283496279	-0.0212354106972736	-0.0617964495459164	-0.00387850291701268	-0.0618313069874353	-0.00386610721397498	-0.00906828426991339	0.0483671734381024
1.0515	-0.0583883330232891	-0.0209839747091685	-0.0618002507685952	-0.00358476417449297	-0.0618505154267254	-0.00357377960708959	-0.00898498121746691	0.0484393106069025
1.052	-0.0584654875156908	-0.0207314941728209	-0.0617964165211657	-0.00329881278893182	-0.061849763260007	-0.00328029031076491	-0.00887835765770356	0.0484923861374855
1.0525	-0.0585607728038486	-0.020472777206416	-0.0618138344270343	-0.0030069275402633	-0.0618563307959316	-0.00299461121245082	-0.00877483484566515	0.0485804689722032
1.053	-0.0586340405210889	-0.0202137647528824	-0.0618096573604216	-0.00270901560024602	-0.061857219215841	-0.00270417557614104	-0.00868020647515363	0.0486534811381976
1.0535	-0.0587041003052026	-0.0199623305996536	-0.0618078160689657	-0.00241949602568817	-0.0618579072080369	-0.00241032142824423	-0.00858012070668691	0.048736239754482
1.054	-0.0587879198682138	-0.0196984126595972	-0.0618179055619672	-0.00214635701272752	-0.0618574881603478	-0.00212022031092454	-0.00849473544707184	0.0488040877754761
1.0545	-0.0588631406623731	-0.0194477479499337	-0.0618099405469189	-0.00185250699449853	-0.0618609415668597	-0.00183594884945056	-0.00838866009146622	0.0488750311443225
1.055	-0.0589521264782657	-0.019181269390103	-0.0618199053343712	-0.00155804898471373	-0.0618486647303992	-0.00155070481734387	-0.008283374928137	0.0489471160852395
1.0555	-0.0590248415513954	-0.0189288367371565	-0.0618097856466622	-0.00126205757116	-0.0618462529718631	-0.0012545348815873	-0.00821020663374816	0.0490269928658451
1.056	-0.0591000514720984	-0.0186831935094858	-0.0617903409400168	-0.000983862738924061	-0.061839813904026	-0.000958566377433905	-0.00810623812542412	0.0490855926611918
1.0565	-0.0591721628488178	-0.0184253634166694	-0.0617895318482073	-0.000683033469235265	-0.0618293947017008	-0.000671894991680251	-0.00799951554627083	0.0491656415439092
1.057	-0.0592546668303364	-0.0181625235930863	-0.0617925037540221	-0.000400778878213382	-0.061812689866193	-0.000391390769284576	-0.0079029518622954	0.0492334254988949
1.0575	-0.0593251974733826	-0.0178944526522351	-0.0617736260708597	-0.000104489615544437	-0.0618081081078168	-9.49412215583084E-05	-0.00779635810631549	0.0493009907284229
1.058	-0.0594061071405353	-0.017647594349324	-0.0617672167559388	0.000175074258642132	-0.0618024761510581	0.000194027918366237	-0.00767985357900236	0.0493805038923161
1.0585	-0.0594775018688079	-0.0173881277164755	-0.0617510199463993	0.000472336069636744	-0.061788270329134	0.000485197092882932	-0.00758224552390852	0.0494332177155794
1.059	-0.0595436740816322	-0.0171240744016031	-0.0617200019595898	0.000757133333076708	-0.0617754141609788	0.000772311115122677	-0.00748262773875844	0.0495130991313974
1.0595	-0.059606460639103	-0.0168726882153621	-0.0617146982488388	0.00104503861603209	-0.0617564957638804	0.00105927924229594	-0.00736746587346276	0.0495890209930659
