Freq,S11_r,S11_i
1000000000.0,-6.510147341472357e-05,-0.002507093983744112
1010000000.0,-7.788800186143274e-05,-0.0025104384782590836
1020000000.0,-9.839226876615656e-05,-0.002504169444949266
1030000000.0,-0.00010174534681215505,-0.0025091770537578177
1040000000.0,-0.00010899830871705191,-0.002494201901681248
1050000000.0,-0.0001328613580196272,-0.00250090659191638
1060000000.0,-0.00015580582038361503,-0.002493491019813731
1070000000.0000001,-0.00015874803490626107,-0.002501344495738948
1080000000.0,-0.00018029182675889953,-0.002496936131674564
1090000000.0,-0.0001981382708242773,-0.0024913364965905523
1100000000.0,-0.0002063023369485986,-0.002505862216298939
1110000000.0,-0.00021044295010255945,-0.0024924675001557605
1120000000.0,-0.00022972180672473967,-0.0024895371325144187
1130000000.0,-0.0002395921544904972,-0.0024950596264362674
1140000000.0,-0.0002619617454446025,-0.0024913780403451936
1150000000.0,-0.0002781788453718254,-0.002488983864325901
1160000000.0,-0.0003164779039662901,-0.0024860669591971235
1170000000.0,-0.0003234062752836932,-0.0024854655825818257
1180000000.0,-0.00033525133835258077,-0.0024817452395830297
1190000000.0,-0.0003579147214555041,-0.0024762976163067445
1200000000.0,-0.00038278189671526786,-0.002487244692578472
1210000000.0,-0.0003943967113411214,-0.0024723212330239044
1220000000.0,-0.0004122550209133045,-0.0024669110220499673
1230000000.0,-0.00043487725380616816,-0.002455071021232741
1240000000.0,-0.0004360217443184737,-0.002452809899121538
1250000000.0,-0.00047092622841963356,-0.002437190826739447
1260000000.0,-0.0004976498924066331,-0.002456155973580173
1270000000.0,-0.0005141688266426063,-0.002446813493355546
1280000000.0,-0.0005204560811689809,-0.0024346674603690182
1290000000.0,-0.0005328843837307219,-0.002442006985734834
1300000000.0,-0.0005532435209792441,-0.0024407376916748004
1310000000.0,-0.0005869392436257518,-0.0024369792553523588
1320000000.0,-0.0006080750857184775,-0.002419344815773894
1330000000.0,-0.0006277472931585683,-0.0024278666816237096
1340000000.0,-0.0006355460994613024,-0.0024243947380406068
1350000000.0,-0.0006590243538797985,-0.0024030606740006793
1360000000.0,-0.0006920661249929989,-0.00239828209689927
1370000000.0,-0.0007137246305237463,-0.0023989097265356657
1380000000.0,-0.000727534234447677,-0.0023897857854360085
1390000000.0,-0.0007502065781570366,-0.0023789351784763413
1400000000.0,-0.0007741171507317194,-0.0023686475249658618
1410000000.0,-0.0007838382887227419,-0.002368251865629758
1420000000.0,-0.0008174859080720542,-0.0023585722919603467
1430000000.0,-0.0008354190700515591,-0.002352017311038739
1440000000.0,-0.0008599512886382278,-0.002352937704804642
1450000000.0,-0.0008746918873060654,-0.0023378873480439585
1460000000.0,-0.0008957836297629118,-0.0023310685193043104
1470000000.0,-0.000922240081424743,-0.002311350866823438
1480000000.0,-0.000937471329147863,-0.0023092553737369672
1490000000.0,-0.0009580138340454983,-0.0022971977636666334
1500000000.0,-0.0009757017532061315,-0.002293768369110697
1510000000.0,-0.0009991620712203394,-0.0022805390725448476
1520000000.0,-0.0010236774990048558,-0.002277260225987692
1530000000.0,-0.001042347187677395,-0.002262148408676256
1540000000.0,-0.001064749056434774,-0.002252195328639178
1550000000.0,-0.0010875218336485045,-0.002246316447816271
1560000000.0,-0.0011095859830824932,-0.00222771530161186
1570000000.0,-0.0011236642947380618,-0.0022177359314852116
1580000000.0,-0.001147220651875658,-0.0022076723724022574
1590000000.0,-0.0011670844986066268,-0.0021911615533524377
1600000000.0,-0.0011850452823943224,-0.0021751617166865804
1610000000.0,-0.0012042001822591688,-0.0021727194869592195
1620000000.0,-0.0012344149646000932,-0.002145868622109816
1630000000.0,-0.001245999219763477,-0.002146825641455513
1640000000.0,-0.0012695846623893418,-0.0021218850419800137
1650000000.0,-0.0012878758467797249,-0.002105584210356342
1660000000.0,-0.001296770737670578,-0.0020949071221643793
1670000000.0,-0.001335718638740033,-0.002078088642722177
1680000000.0,-0.001352336211166755,-0.0020541160130874616
1690000000.0,-0.0013657482111978309,-0.0020413235741748802
1700000000.0,-0.0013989643483721217,-0.002019443913157133
1710000000.0,-0.0014097962607678746,-0.0020015906127213794
1720000000.0,-0.001434254794035187,-0.0019757688093058954
1730000000.0,-0.001449360163706009,-0.001966544577127919
1740000000.0,-0.0014700611690224978,-0.0019434790517564604
1750000000.0,-0.001477378171417009,-0.0019231251049133663
1760000000.0,-0.001503797719376822,-0.0018937999391045368
1770000000.0,-0.0015161546869098452,-0.0018863855920532443
1780000000.0,-0.0015370800917983425,-0.0018718961273232312
1790000000.0,-0.0015612994961658269,-0.0018462691320494367
1800000000.0,-0.0015750902816813771,-0.001814303978113077
1810000000.0,-0.001587459331647953,-0.0018125891991495006
1820000000.0,-0.0016107182533892563,-0.001792584889257902
1830000000.0,-0.001623469762045454,-0.0017635299433783657
1840000000.0,-0.0016364086691289593,-0.0017463605169631916
1850000000.0,-0.0016500384902315617,-0.0017338723078008085
1860000000.0,-0.0016608181128273732,-0.0016982424353112332
1870000000.0,-0.0016919729129331428,-0.001694286389702715
1880000000.0,-0.0017123993302963555,-0.0016617623976448858
1890000000.0,-0.0017092136951279246,-0.0016472208559272152
1900000000.0,-0.001729433348558133,-0.001621356931797511
1910000000.0,-0.0017490675502479687,-0.0015902043026574351
1920000000.0,-0.0017589390400008583,-0.001567416253420214
1930000000.0,-0.001768760829533575,-0.0015554500871172304
1940000000.0,-0.0017799420662153581,-0.0015096588825754494
1950000000.0,-0.0018012309731807205,-0.0015064834000916483
1960000000.0,-0.0018144639023548231,-0.001470271070306092
1970000000.0,-0.001833850840693857,-0.0014533177722308372
1980000000.0,-0.0018487948258482745,-0.0014301135288151384
1990000000.0,-0.0018585917793410111,-0.0013935251106660406
2000000000.0,-0.0018856687401304973,-0.0013619957964586303
