# GHZ S RI R 50
1.00000	-0.0449668430971709	-0.0450711366484698	-0.0535746431146268	-0.0334034618678024	-0.0536142487312902	-0.0334459260860622	-0.0189923749501338	0.0410637025383535
1.00050	-0.0451617512660858	-0.0448927234813758	-0.0537301814023390	-0.0331512245220759	-0.0537783289886186	-0.0331896673791129	-0.0189460845953744	0.0411326533197063
1.00100	-0.0453529538655761	-0.0446932605413404	-0.0538830474353437	-0.0328895726220290	-0.0539345737850459	-0.0329291659874779	-0.0188922512534648	0.0411968923473684
1.00150	-0.0455237100330584	-0.0444839717719998	-0.0540240218552574	-0.0326283291352105	-0.0540689219641778	-0.0326673862553159	-0.0188320817671280	0.0412605315168499
1.00200	-0.0457063150263463	-0.0442898644781883	-0.0541678630203951	-0.0323659015395148	-0.0542161969917218	-0.0324050933842430	-0.0187495222646705	0.0413227285332715
1.00250	-0.0458904237164671	-0.0440968645966656	-0.0543227138380421	-0.0321090157382825	-0.0543591162958815	-0.0321429641985213	-0.0187021434726349	0.0413879409010848
1.00300	-0.0460665541350873	-0.0438970093648105	-0.0544582844698529	-0.0318545425159131	-0.0545061057198698	-0.0318759262334635	-0.0186535278502406	0.0414587537245358
1.00350	-0.0462400840281724	-0.0436783741196822	-0.0545999548636045	-0.0315803860557270	-0.0546408973547664	-0.0316188224768859	-0.0185795152051337	0.0415201933355060
1.00400	-0.0464164443263624	-0.0434776642292560	-0.0547275008894599	-0.0313098096123589	-0.0547806609211398	-0.0313500870362169	-0.0185263174479457	0.0415811102993649
1.00450	-0.0465876036597344	-0.0432854987812864	-0.0548662694742836	-0.0310553091372888	-0.0549179287541382	-0.0310873857962172	-0.0184688491765098	0.0416287949990386
1.00500	-0.0467761375607370	-0.0430717984161396	-0.0550041828913428	-0.0307797838139430	-0.0550512927332884	-0.0308205488308073	-0.0184121979292370	0.0417061223924123
1.00550	-0.0469442101125461	-0.0428719695672039	-0.0551389303193230	-0.0305172340101931	-0.0551841048742405	-0.0305482868015719	-0.0183411239686734	0.0417547606000745
1.00600	-0.0471102648962241	-0.0426634702129947	-0.0552623671765674	-0.0302478260032182	-0.0553154975081032	-0.0302876600045843	-0.0182878350793700	0.0418290468180758
1.00650	-0.0473004013557902	-0.0424674900321122	-0.0554096334993298	-0.0299862047995135	-0.0554481278153873	-0.0300161629930733	-0.0182320039095615	0.0418921872372352
1.00700	-0.0474859296440223	-0.0422620388605990	-0.0555367803864901	-0.0297252432544519	-0.0555814967768270	-0.0297500164880105	-0.0181751851605219	0.0419651007999030
1.00750	-0.0476409055831233	-0.0420426338807283	-0.0556521821641726	-0.0294441640092380	-0.0557083247267224	-0.0294813226385929	-0.0180764916405718	0.0420249178008582
1.00800	-0.0478158865724779	-0.0418369681188732	-0.0557816742565511	-0.0291715540017693	-0.0558307143210350	-0.0292154919886824	-0.0180366923769724	0.0420930497782954
1.00850	-0.0479934484674620	-0.0416347541878734	-0.0559142972268573	-0.0289010303720110	-0.0559695052939235	-0.0289420122790291	-0.0179798854446571	0.0421619305200370
1.00900	-0.0481652924874582	-0.0414308127953601	-0.0560364869119497	-0.0286469097580208	-0.0560812342381058	-0.0286729326973848	-0.0179081218207604	0.0422246012217943
1.00950	-0.0483333131418271	-0.0412212372711284	-0.0561653202202351	-0.0283738088217565	-0.0562152762869419	-0.0284089053219628	-0.0178566201863083	0.0422928047107079
1.01000	-0.0484988258221405	-0.0410118532931567	-0.0562864844519383	-0.0281046463891442	-0.0563470639329565	-0.0281382982489047	-0.0177997577523430	0.0423568401556548
1.01050	-0.0486663926465920	-0.0407973627471905	-0.0564033924566763	-0.0278392418528397	-0.0564684605003334	-0.0278654698910924	-0.0177234960049717	0.0424267962237898
1.01100	-0.0488419463616877	-0.0405914650506893	-0.0565250075176098	-0.0275589798278320	-0.0565754864399086	-0.0275864079187206	-0.0176713695408941	0.0424876497435161
1.01150	-0.0489920933383548	-0.0403726381704378	-0.0566400900371544	-0.0272796112109972	-0.0566923493813824	-0.0273166597600526	-0.0176183739358922	0.0425572449420397
1.01200	-0.0491620676063289	-0.0401613536220429	-0.0567522353897448	-0.0270089607063578	-0.0568112576382406	-0.0270486159766377	-0.0175577862617544	0.0426302501906925
1.01250	-0.0493211617809107	-0.0399466874383668	-0.0568630524241242	-0.0267338400297258	-0.0569289091259552	-0.0267791409287031	-0.0174906077417985	0.0426939831934615
1.01300	-0.0494960565193498	-0.0397288322277416	-0.0569869691348190	-0.0264657886470321	-0.0570374961435829	-0.0264985796391923	-0.0174307831898978	0.0427521474423244
1.01350	-0.0496585733630849	-0.0395086814628868	-0.0571109377784794	-0.0261952891373881	-0.0571657962424277	-0.0262261546668832	-0.0173599246660307	0.0428124589805440
1.01400	-0.0497978271207415	-0.0392958276359736	-0.0572231988511792	-0.0259261120745302	-0.0572628620864764	-0.0259490256740835	-0.0173033992249781	0.0428960914084491
1.01450	-0.0499848389571862	-0.0390746362759241	-0.0573163030860581	-0.0256453592215712	-0.0573811164407479	-0.0256679441635674	-0.0172395463184509	0.0429598583360786
1.01500	-0.0501324688528332	-0.0388632191980207	-0.0574422826807484	-0.0253726330664817	-0.0574967121946101	-0.0254055951245048	-0.0171649087179207	0.0430242944154420
1.01550	-0.0502883114187623	-0.0386500302240980	-0.0575336358129054	-0.0250955615342047	-0.0575949776261255	-0.0251209942115867	-0.0171223413126560	0.0431001950701384
1.01600	-0.0504391404288458	-0.0384220952622633	-0.0576456118411406	-0.0248188799143608	-0.0577021443997975	-0.0248499944788817	-0.0170501582684833	0.0431705239388130
1.01650	-0.0506162849862811	-0.0382152914067094	-0.0577567826899690	-0.0245411712079864	-0.0578160739218507	-0.0245726575578491	-0.0169971788369362	0.0432236140645210
1.01700	-0.0507491597005981	-0.0379802469312692	-0.0578543864850781	-0.0242712922637424	-0.0579137904334052	-0.0242958751349279	-0.0169274372466126	0.0432967354882013
1.01750	-0.0509097830001296	-0.0377617404673472	-0.0579504816405044	-0.0239940050096538	-0.0580148061767915	-0.0240148946369074	-0.0168677906830529	0.0433628938114809
1.01800	-0.0510572773044365	-0.0375397773661394	-0.0580595420253773	-0.0237165386355114	-0.0581131924927307	-0.0237400206877546	-0.0167997208363444	0.0434403804716425
1.01850	-0.0512145016603888	-0.0373104605139605	-0.0581553157755874	-0.0234311205573206	-0.0582252899793678	-0.0234665425203964	-0.0167358303557788	0.0435032369451021
1.01900	-0.0513662802102744	-0.0370926156745546	-0.0582433356582048	-0.0231554875975302	-0.0583210566987396	-0.0231893369618641	-0.0166748887204000	0.0435588303795443
1.01950	-0.0515141484386425	-0.0368742373964312	-0.0583457631598567	-0.0228768016191354	-0.0584223176088681	-0.0229029801978976	-0.0166030120522963	0.0436344223458175
1.02000	-0.0516676938529229	-0.0366527727742110	-0.0584462027488513	-0.0226025975810327	-0.0585004051176897	-0.0226302156588630	-0.0165408535396375	0.0436954324605516
1.02050	-0.0518044694360881	-0.0364127813604738	-0.0585396395808499	-0.0223227427889230	-0.0586069605312743	-0.0223476584854420	-0.0164776961166516	0.0437779476681990
1.02100	-0.0519580521472769	-0.0362022838815389	-0.0586376516899914	-0.0220413434369368	-0.0586974142428711	-0.0220655794304053	-0.0164152986392232	0.0438446720790158
1.02150	-0.0520949770562624	-0.0359741924236764	-0.0587291978926317	-0.0217677556823855	-0.0587903231881215	-0.0217869493369929	-0.0163325561649767	0.0439104746915054
1.02200	-0.0522573623033595	-0.0357398864675634	-0.0588173595839295	-0.0214803102741809	-0.0588700621710415	-0.0215107279130437	-0.0162762523384248	0.0439784632679984
1.02250	-0.0523946435967800	-0.0355127745405117	-0.0589082553514325	-0.0212039880172054	-0.0589627283634871	-0.0212232438891384	-0.0162265633124954	0.0440430873199599
1.02300	-0.0525485669440018	-0.0352837650150217	-0.0589947044587697	-0.0209230202825127	-0.0590464394214466	-0.0209402287231303	-0.0161493593194117	0.0441223866371799
1.02350	-0.0526819287236265	-0.0350553682079146	-0.0590768159336911	-0.0206414193367761	-0.0591374537689944	-0.0206682286482674	-0.0160906511541276	0.0441795518340250
1.02400	-0.0528172716400850	-0.0348298561932956	-0.0591702030689768	-0.0203553374875557	-0.0592293580216624	-0.0203833161398040	-0.0160284508997621	0.0442587691912429
1.02450	-0.0529621103967837	-0.0345865359412092	-0.0592611085779546	-0.0200667244476263	-0.0593048763455628	-0.0201018604040871	-0.0159382074573151	0.0443406406668260
1.02500	-0.0531102635956818	-0.0343690992640043	-0.0593480349529875	-0.0197997917968850	-0.0593880059118626	-0.0198235603276749	-0.0158937529026911	0.0444126225401580
1.02550	-0.0532291297959760	-0.0341366177560062	-0.0594321451793219	-0.0195145923533416	-0.0594794693219719	-0.0195340518764643	-0.0158226224722854	0.0444707345758526
1.02600	-0.0533736909346707	-0.0339063133237385	-0.0595002370856555	-0.0192306207316958	-0.0595434798376306	-0.0192522109537679	-0.0157430624660161	0.0445544716406008
1.02650	-0.0535141493579720	-0.0336735052945675	-0.0595784179142147	-0.0189571007415716	-0.0596298338632384	-0.0189657586723062	-0.0156770213757024	0.0446151837335502
1.02700	-0.0536466717330711	-0.0334386497374781	-0.0596579624281925	-0.0186647191566849	-0.0597005318719120	-0.0186884987357017	-0.0156124849120902	0.0446803883820674
1.02750	-0.0537851011267644	-0.0332073742401799	-0.0597358693977823	-0.0183822933063603	-0.0597739766260388	-0.0184033251608761	-0.0155390422826023	0.0447513638882320
1.02800	-0.0539323220732611	-0.0329737850016563	-0.0598056275746113	-0.0180966659068522	-0.0598452588519394	-0.0181144340665471	-0.0154874717513250	0.0448429582623892
1.02850	-0.0540523328962802	-0.0327413655848606	-0.0598694957142877	-0.0178142184646925	-0.0599236123448058	-0.0178392048827528	-0.0153996741725035	0.0448953671374777
1.02900	-0.0541864051125292	-0.0324973302270305	-0.0599468564626139	-0.0175345672262536	-0.0599947983372917	-0.0175519625276134	-0.0153431859878840	0.0449661545054721
1.02950	-0.0543302470469275	-0.0322603605553300	-0.0600105213824371	-0.0172453558751396	-0.0600725504855639	-0.0172682019105792	-0.0152565118325724	0.0450399669550443
1.03000	-0.0544433637554171	-0.0320318545705889	-0.0600718660007557	-0.0169616758819848	-0.0601447847559642	-0.0169826989105299	-0.0151903858287419	0.0451094390395839
1.03050	-0.0545790733199889	-0.0318002939862272	-0.0601444697197303	-0.0166770623890081	-0.0602109330318406	-0.0166946012482063	-0.0151241186531171	0.0451855178380555
1.03100	-0.0547050085085608	-0.0315560750096092	-0.0602131613990806	-0.0163938710559401	-0.0602788719745701	-0.0164093273425882	-0.0150548145681310	0.0452554032848863
1.03150	-0.0548402115394794	-0.0313203937370802	-0.0602720528091450	-0.0161043278670366	-0.0603402333098285	-0.0161259964463187	-0.0149814070758987	0.0453355312045760
1.03200	-0.0549664748054533	-0.0310789101028681	-0.0603439737620983	-0.0158196259608302	-0.0603986433316611	-0.0158381750493089	-0.0149142246816538	0.0453944132415839
1.03250	-0.0550854517541037	-0.0308482013724712	-0.0604045160157472	-0.0155322946995530	-0.0604619644157511	-0.0155573214867086	-0.0148413310013768	0.0454773828963944
1.03300	-0.0552120757948826	-0.0306037223763689	-0.0604599585716277	-0.0152530648130263	-0.0605194726060632	-0.0152629769021967	-0.0147745594119574	0.0455441332826333
1.03350	-0.0553273344385136	-0.0303641000091974	-0.0605236608026212	-0.0149716037801718	-0.0605791895043781	-0.0149830295779534	-0.0146977265184742	0.0456166244332930
1.03400	-0.0554536891605143	-0.0301224006852478	-0.0605704100822830	-0.0146802527021776	-0.0606404137099218	-0.0146966076778213	-0.0146143578399015	0.0456950579470943
1.03450	-0.0555810086233814	-0.0298946756047433	-0.0606502558599414	-0.0143914577781163	-0.0606957195236351	-0.0144061908626148	-0.0145545679201437	0.0457646817644781
1.03500	-0.0556968296558590	-0.0296598315130388	-0.0607034085007398	-0.0141055525879520	-0.0607402997616770	-0.0141158118670267	-0.0144663307667284	0.0458273244859232
1.03550	-0.0558256937242147	-0.0294000403193948	-0.0607511147179109	-0.0138171660741597	-0.0608068530897674	-0.0138361346151821	-0.0144026526832384	0.0459153823854912
1.03600	-0.0559472511134220	-0.0291604953978273	-0.0608143588175468	-0.0135312694975070	-0.0608484478348710	-0.0135422018462222	-0.0143093874154477	0.0459873247765570
1.03650	-0.0560669312541794	-0.0289231585588408	-0.0608683996970862	-0.0132491231050999	-0.0609065582909622	-0.0132584277880271	-0.0142556092528896	0.0460571583277180
1.03700	-0.0561787652851544	-0.0286855383371918	-0.0609126342464102	-0.0129636317297625	-0.0609585473244617	-0.0129748880443216	-0.0141721718135633	0.0461340793363534
1.03750	-0.0562944278667798	-0.0284318733667813	-0.0609529839261324	-0.0126726651081035	-0.0610039756799694	-0.0126867876078725	-0.0140981068075857	0.0462016371779527
1.03800	-0.0564045114425284	-0.0281868120051709	-0.0610033007552974	-0.0123904004528473	-0.0610573445457546	-0.0123987608660397	-0.0140097341953945	0.0462809981642375
1.03850	-0.0565186659156634	-0.0279304623101958	-0.0610380347489399	-0.0121007335560537	-0.0610988472596257	-0.0121150026605657	-0.0139331583167575	0.0463471633169679
1.03900	-0.0566428434110460	-0.0276929037567318	-0.0610950914385552	-0.0118151487610029	-0.0611404485491180	-0.0118127234003356	-0.0138813683125405	0.0464268333931718
1.03950	-0.0567505672302542	-0.0274505204522298	-0.0611396878930515	-0.0115192210081088	-0.0611849362899795	-0.0115359101869952	-0.0137968163999507	0.0465011069061913
1.04000	-0.0568537564066476	-0.0271983081651932	-0.0611702494904298	-0.0112406704591544	-0.0612319485480246	-0.0112526550792767	-0.0137153894920701	0.0465906654809964
1.04050	-0.0569758025155810	-0.0269566053967524	-0.0612195889952350	-0.0109570273465844	-0.0612717013231035	-0.0109605498882246	-0.0136290559189204	0.0466409520461884
1.04100	-0.0570697640781627	-0.0267060958571326	-0.0612504212245119	-0.0106643887815674	-0.0613152100862580	-0.0106779705975855	-0.0135458310769920	0.0467235433153678
1.04150	-0.0571796646274402	-0.0264538981915075	-0.0612883838116996	-0.0103742470640395	-0.0613431727915331	-0.0103887932976239	-0.0134692916536519	0.0467948389618707
1.04200	-0.0572848965755482	-0.0262094046546752	-0.0613263056735120	-0.0100926076490059	-0.0613798462854569	-0.0101038698663840	-0.0133858331331418	0.0468746766033584
1.04250	-0.0573971834146106	-0.0259558183515460	-0.0613720569082859	-0.0098004729491738	-0.0614197315150981	-0.0098088820686322	-0.0133191057352222	0.0469567268519040
1.04300	-0.0574992358154062	-0.0257143520328677	-0.0613890982140901	-0.0095103969044723	-0.0614485099373598	-0.0095210403868486	-0.0132299290870235	0.0470372940972785
1.04350	-0.0576121626924307	-0.0254650115507977	-0.0614329407857856	-0.0092226295734562	-0.0614869890540038	-0.0092248662461252	-0.0131468506779194	0.0471036077104060
1.04400	-0.0577190411120841	-0.0252162102135545	-0.0614619772282468	-0.0089426486474779	-0.0615212661930150	-0.0089455629862408	-0.0130785879197874	0.0471640624133308
1.04450	-0.0577983790857733	-0.0249486427009499	-0.0614926053365200	-0.0086401601880393	-0.0615447247866658	-0.0086547394646221	-0.0129806436779746	0.0472500269470114
1.04500	-0.0579087333892315	-0.0247035059163870	-0.0615303175941679	-0.0083579919523621	-0.0615793170235734	-0.0083730343440244	-0.0129064001995902	0.0473392676653857
1.04550	-0.0580032942934105	-0.0244612566952472	-0.0615442109207081	-0.0080738176507864	-0.0615979497726120	-0.0080745999695559	-0.0128347854668994	0.0474062539602705
1.04600	-0.0580961572053053	-0.0242161247669103	-0.0615891615919669	-0.0077822387619556	-0.0616178525372906	-0.0077911401416601	-0.0127424688325093	0.0474758757807343
1.04650	-0.0581985152723044	-0.0239549041343396	-0.0615983277007361	-0.0074957679489013	-0.0616490491709433	-0.0075052019791697	-0.0126621351679808	0.0475564858188884
1.04700	-0.0582804239431586	-0.0237017002771490	-0.0616216086140447	-0.0072061746319988	-0.0616732549732427	-0.0072145436804638	-0.0125837320871213	0.0476278456857847
1.04750	-0.0583903615228791	-0.0234543512034665	-0.0616405923207389	-0.0069170430216847	-0.0616938148053587	-0.0069249794867251	-0.0124929278595300	0.0477283444106360
1.04800	-0.0584994505750948	-0.0232019997985915	-0.0616586943474749	-0.0066269431695587	-0.0617122855851483	-0.0066390378308375	-0.0124104182905863	0.0477941829014808
1.04850	-0.0585801867989028	-0.0229426620639628	-0.0616827350365006	-0.0063420727496973	-0.0617256463347483	-0.0063461043568458	-0.0123165629046220	0.0478602359268036
1.04900	-0.0586718727687502	-0.0226923054589292	-0.0617021066570851	-0.0060536868202514	-0.0617515421670573	-0.0060577471140197	-0.0122404191689374	0.0479260338306834
1.04950	-0.0587632604899458	-0.0224297665524146	-0.0617241557732608	-0.0057647758308032	-0.0617666274493004	-0.0057735109695643	-0.0121397639400940	0.0480354487657135
1.05000	-0.0588440869858337	-0.0221893929647256	-0.0617279694670161	-0.0054748784554717	-0.0617894961433622	-0.0054890779500611	-0.0120662659537684	0.0480944996582229
1.05050	-0.0589408437978910	-0.0219312811540485	-0.0617424953023973	-0.0051887360111670	-0.0617957426317259	-0.0051944560089208	-0.0119580313693043	0.0481614913077437
1.05100	-0.0590331739158151	-0.0216722615804816	-0.0617637363319147	-0.0048993971080216	-0.0618115651066749	-0.0049103534233399	-0.0118707569327462	0.0482458953711216
1.05150	-0.0591114191592158	-0.0214180637192985	-0.0617801709010356	-0.0046103923326610	-0.0618245586733267	-0.0046186724405047	-0.0117817412465723	0.0483158159640462
1.05200	-0.0591987815998761	-0.0211651808672520	-0.0617672344812970	-0.0043242664524356	-0.0618387015461724	-0.0043297016881535	-0.0116942775711903	0.0484012379513971
1.05250	-0.0592928006629139	-0.0209011030094731	-0.0617827905420068	-0.0040398341779218	-0.0618476768569436	-0.0040426320697134	-0.0116152225753465	0.0484831759299303
1.05300	-0.0593718365377948	-0.0206384706775336	-0.0617878254839939	-0.0037463706405695	-0.0618382363309058	-0.0037509144294302	-0.0115273613631293	0.0485481839570753
1.05350	-0.0594558259190230	-0.0203900979811786	-0.0617886772016739	-0.0034584275160560	-0.0618541604481495	-0.0034594676890531	-0.0114259091564649	0.0486267530588260
1.05400	-0.0595334387224145	-0.0201240903335310	-0.0618097239384106	-0.0031752718362007	-0.0618559680611166	-0.0031771230707699	-0.0113288156671757	0.0487116915009771
1.05450	-0.0596131180488665	-0.0198645900898333	-0.0618222370564250	-0.0028922625453754	-0.0618582815094400	-0.0028941253227889	-0.0112431298644658	0.0487676343822480
1.05500	-0.0596917969773779	-0.0196122684639852	-0.0618200309077574	-0.0026016624479470	-0.0618588340596861	-0.0025995261672564	-0.0111490602317453	0.0488418345383431
1.05550	-0.0597682593069124	-0.0193505346198504	-0.0618078034596054	-0.0023165197432082	-0.0618613565469748	-0.0023144995602789	-0.0110481105522768	0.0489246807054228
1.05600	-0.0598583519954677	-0.0191099508853227	-0.0618188944031540	-0.0020254949159147	-0.0618655070987267	-0.0020314995464725	-0.0109544860921546	0.0490036039202874
1.05650	-0.0599165074989385	-0.0188343319479447	-0.0618060158355167	-0.0017361193835562	-0.0618562417520856	-0.0017364350695027	-0.0108600618568508	0.0490801653906998
1.05700	-0.0600012112687444	-0.0185887535364927	-0.0618111866150909	-0.0014468726528036	-0.0618488560989335	-0.0014439451891059	-0.0107645586436515	0.0491589664214800
1.05750	-0.0600767201946071	-0.0183143454571137	-0.0617932794828061	-0.0011568098144799	-0.0618457207510045	-0.0011663987233973	-0.0106664416034141	0.0492465125957727
1.05800	-0.0601574834762169	-0.0180588866307868	-0.0617885526831891	-0.0008705193584416	-0.0618408288183219	-0.0008802500895896	-0.0105661921728231	0.0493180997135892
1.05850	-0.0602190853922524	-0.0178017085218811	-0.0617902772830066	-0.0005858431228100	-0.0618305276205218	-0.0005893493589925	-0.0104654133236051	0.0493755887473723
