!Keysight Technologies,N5245A,US52130011,A.10.65.16
!Date: Wednesday, July 16, 2025 17:03:21
!Correction: S11(Full 2 Port(1,2)) 
!S21(Full 2 Port(1,2)) 
!S12(Full 2 Port(1,2)) 
!S22(Full 2 Port(1,2)) 
!S2P File: Measurements: S11, S21, S12, S22:
# Hz S  RI   R 50
1000000000 -0.055073742 -0.061279517 -34.972008 13.561371 -0.0045656576 -0.0044782422 0.033252198 0.22594738
1000500000 -0.055113986 -0.060698166 -34.936501 13.633166 -0.0042394283 -0.0040989597 0.033732325 0.22540218
1001000000 -0.054927539 -0.061289776 -34.911419 13.695787 -0.003922808 -0.0043057841 0.033130545 0.22552642
1001500000 -0.055331219 -0.060998134 -34.889458 13.742713 -0.0044618286 -0.0044807978 0.033418715 0.22591943
1002000000 -0.055294674 -0.061062619 -34.858093 13.812305 -0.0040733735 -0.0043128519 0.033778515 0.22568737
1002500000 -0.055442084 -0.060514085 -34.840206 13.855738 -0.0045623598 -0.0044817566 0.034207683 0.22597615
1003000000 -0.055870909 -0.060600024 -34.819962 13.91592 -0.00416297 -0.0044206311 0.033661339 0.22601178
1003500000 -0.055562876 -0.060669612 -34.791958 13.968264 -0.004430634 -0.004465004 0.034863304 0.2247058
1004000000 -0.055601016 -0.060468953 -34.758446 14.028516 -0.0042897183 -0.0043164445 0.035131171 0.22544481
1004500000 -0.05618063 -0.0607858 -34.715969 14.0854 -0.0044164616 -0.0048603197 0.03510163 0.22557008
1005000000 -0.055406772 -0.060793139 -34.719769 14.170634 -0.0041900864 -0.0044691321 0.035694551 0.22538479
1005500000 -0.056421611 -0.06027953 -34.696537 14.204113 -0.0047478331 -0.0043997304 0.035705503 0.22516958
1006000000 -0.056256182 -0.060484678 -34.652576 14.271212 -0.0040012193 -0.0042408728 0.036452491 0.22592171
1006500000 -0.056982283 -0.060095545 -34.616318 14.326788 -0.0046179309 -0.0045545832 0.036783475 0.2256567
1007000000 -0.057135455 -0.060432494 -34.588093 14.389088 -0.0040703085 -0.0047880267 0.037242807 0.22566599
1007500000 -0.056439105 -0.061058275 -34.571556 14.455859 -0.0045156046 -0.0045567751 0.036458112 0.22559357
1008000000 -0.05661374 -0.060220551 -34.544544 14.508003 -0.0043043816 -0.0040081888 0.037232112 0.22574268
1008500000 -0.056998949 -0.060093824 -34.509647 14.575123 -0.0047221002 -0.0043800715 0.038019605 0.22582383
1009000000 -0.057301499 -0.06040116 -34.496078 14.628624 -0.0046365513 -0.0045835562 0.03828799 0.22486751
1009500000 -0.057535801 -0.060101114 -34.447769 14.696257 -0.0047419132 -0.0044350978 0.038628079 0.225376
1010000000 -0.057826459 -0.05998639 -34.427383 14.737033 -0.0042690299 -0.0043885321 0.03889868 0.22542341
1010500000 -0.057516571 -0.059890565 -34.424477 14.807487 -0.0046661706 -0.0045375898 0.038653076 0.22503385
1011000000 -0.057968251 -0.059543334 -34.383617 14.879084 -0.0044765384 -0.0045308536 0.039498329 0.22504029
1011500000 -0.057577372 -0.059931595 -34.371933 14.923627 -0.0043433523 -0.0043190368 0.039383408 0.22575223
1012000000 -0.057927091 -0.059546888 -34.33189 15.011653 -0.0044162772 -0.0040105321 0.03943982 0.22557402
1012500000 -0.058199655 -0.060607344 -34.309006 15.037463 -0.0041380338 -0.0041150129 0.039741296 0.22511195
1013000000 -0.05813729 -0.059130795 -34.274364 15.105536 -0.0048975116 -0.0045490018 0.040283844 0.22545969
1013500000 -0.058195762 -0.059320003 -34.247463 15.151937 -0.004754792 -0.0039425483 0.040798645 0.22448069
1014000000 -0.058252335 -0.059594274 -34.206264 15.223464 -0.0044998545 -0.0037894519 0.040863544 0.22570859
1014500000 -0.058572099 -0.059284441 -34.208084 15.290968 -0.0048291022 -0.0044032885 0.040788729 0.22465041
1015000000 -0.059004329 -0.059532274 -34.174282 15.357018 -0.0048628026 -0.0043258187 0.040651191 0.22527607
1015500000 -0.058940686 -0.059477616 -34.135201 15.410808 -0.0043808967 -0.0047353571 0.04159724 0.22469977
1016000000 -0.058934167 -0.059576407 -34.114521 15.463481 -0.0046056379 -0.0045112991 0.042303879 0.22494318
1016500000 -0.058999177 -0.059595197 -34.073296 15.510203 -0.0043182508 -0.0040260293 0.042033292 0.22530234
1017000000 -0.05917342 -0.059290934 -34.057426 15.584956 -0.0047807246 -0.0041434285 0.042311184 0.22445491
1017500000 -0.059553631 -0.060015853 -34.036316 15.6366 -0.0045069456 -0.0046195942 0.04350758 0.22473425
1018000000 -0.060087152 -0.05891645 -34.006111 15.681253 -0.0047736736 -0.0045157382 0.042534113 0.22454572
1018500000 -0.059725028 -0.059018247 -33.980804 15.754389 -0.0048033488 -0.004406387 0.043283939 0.22444534
1019000000 -0.059896205 -0.059100296 -33.94397 15.838621 -0.0047055259 -0.0044353772 0.043514002 0.22509958
1019500000 -0.060080774 -0.058654621 -33.892723 15.877294 -0.0047405488 -0.0043020518 0.043672249 0.22490101
1020000000 -0.05963508 -0.058671605 -33.892868 15.931661 -0.0044951341 -0.0035283538 0.04368154 0.22451057
1020500000 -0.060722105 -0.059138149 -33.87228 15.99229 -0.0046931794 -0.0045285369 0.043944843 0.22477406
1021000000 -0.06017087 -0.058706407 -33.82251 16.03808 -0.0045331507 -0.0047216886 0.044804808 0.224612
1021500000 -0.060482141 -0.059018623 -33.804695 16.11191 -0.0042501497 -0.0044484362 0.044190485 0.22418647
1022000000 -0.06040787 -0.058780424 -33.762569 16.150221 -0.0045895125 -0.0043492345 0.045840666 0.22495732
1022500000 -0.061464444 -0.058485042 -33.746754 16.209272 -0.0045508887 -0.0046093869 0.045520213 0.22491212
1023000000 -0.061002303 -0.05801148 -33.686871 16.287546 -0.0049420157 -0.004297507 0.045266416 0.22461626
1023500000 -0.061236091 -0.058945514 -33.702728 16.348743 -0.0049831648 -0.004633713 0.045456722 0.2242026
1024000000 -0.061085559 -0.058624726 -33.659622 16.391895 -0.0048103686 -0.0042374898 0.046093866 0.22409113
1024500000 -0.061835926 -0.05821187 -33.619827 16.448286 -0.0048885369 -0.0042855414 0.046516139 0.22390504
1025000000 -0.061732989 -0.058055412 -33.604809 16.530325 -0.0046307291 -0.0041068899 0.045699708 0.22377908
1025500000 -0.061228625 -0.058212858 -33.567604 16.557297 -0.0047608465 -0.0043802415 0.04700039 0.22370145
1026000000 -0.062740251 -0.058374032 -33.536205 16.614296 -0.0047000125 -0.0045993943 0.047702547 0.22445789
1026500000 -0.062245704 -0.058203749 -33.488422 16.678383 -0.0048237094 -0.0044035628 0.047088008 0.22373974
1027000000 -0.061787203 -0.058681998 -33.457623 16.740026 -0.0042531029 -0.0039630276 0.047605261 0.22408029
1027500000 -0.062336471 -0.057874985 -33.434063 16.7892 -0.0049914117 -0.0044039991 0.048215419 0.22333364
1028000000 -0.062153764 -0.058689989 -33.385094 16.858719 -0.0043852478 -0.0041130176 0.048572697 0.2235408
1028500000 -0.06254033 -0.057834622 -33.367104 16.904718 -0.004600042 -0.0040038121 0.048614755 0.22343183
1029000000 -0.062964275 -0.057802439 -33.343079 16.968204 -0.0048947525 -0.0043963953 0.049246296 0.22329618
1029500000 -0.062730193 -0.057650715 -33.321911 17.027239 -0.0046335822 -0.0042281607 0.048438486 0.22385196
1030000000 -0.062677324 -0.057833828 -33.271492 17.079096 -0.0048151552 -0.004410137 0.049134508 0.22373436
1030500000 -0.062999003 -0.057530575 -33.26841 17.145515 -0.0046248073 -0.0044247592 0.049091224 0.22397703
1031000000 -0.063443758 -0.057664193 -33.224155 17.208893 -0.0048830975 -0.0042620297 0.049494285 0.22393897
1031500000 -0.063114882 -0.057708509 -33.178566 17.230875 -0.0042578531 -0.004269721 0.050982922 0.22431567
1032000000 -0.063741319 -0.057741892 -33.171616 17.300995 -0.0048172516 -0.004315244 0.050027411 0.2234167
1032500000 -0.063185081 -0.057428103 -33.135723 17.352312 -0.0044953735 -0.004267076 0.050253529 0.22350931
1033000000 -0.063954853 -0.058072854 -33.109531 17.432568 -0.0044004912 -0.0041234526 0.051430963 0.2233344
1033500000 -0.063985154 -0.057502277 -33.071133 17.458565 -0.0049148253 -0.0042350171 0.05111935 0.2238055
1034000000 -0.064602762 -0.057043243 -33.032425 17.519749 -0.0046762829 -0.0038947938 0.051378518 0.22292449
1034500000 -0.063579172 -0.056761537 -33.004112 17.603527 -0.0044634542 -0.0038439669 0.052653749 0.22381885
1035000000 -0.063081384 -0.057354618 -32.970146 17.649115 -0.0047017667 -0.0034918694 0.051798981 0.22345912
1035500000 -0.063976645 -0.057081465 -32.944431 17.715256 -0.004699708 -0.0039953715 0.052508317 0.22240001
1036000000 -0.064588465 -0.057288818 -32.913826 17.791908 -0.0046851081 -0.0046197916 0.052891187 0.22349827
1036500000 -0.064370736 -0.056869123 -32.868477 17.813871 -0.0046070646 -0.0038897996 0.053326946 0.22273609
1037000000 -0.064890847 -0.057015203 -32.848011 17.861273 -0.0043216255 -0.0041586715 0.053341366 0.2223305
1037500000 -0.064888567 -0.056926679 -32.799297 17.91971 -0.0047374982 -0.0041458933 0.054104555 0.22313276
1038000000 -0.064766645 -0.056846101 -32.77198 17.975576 -0.0043990654 -0.0038698567 0.053838599 0.22249037
1038500000 -0.06484551 -0.057250511 -32.756569 18.021959 -0.0046502212 -0.0038941279 0.054447737 0.22222698
1039000000 -0.065874733 -0.056691874 -32.71463 18.086721 -0.0048408462 -0.0043872828 0.054901533 0.22235864
1039500000 -0.065088011 -0.056197651 -32.663219 18.135197 -0.0051856935 -0.0037033472 0.054277979 0.2233022
1040000000 -0.066021398 -0.057024706 -32.641537 18.199026 -0.0045315973 -0.00404592 0.05529888 0.2224797
1040500000 -0.065909706 -0.056316633 -32.619312 18.270741 -0.0052774022 -0.0043276241 0.054914705 0.22253689
1041000000 -0.065133132 -0.05636901 -32.568371 18.331322 -0.0043299356 -0.0038183129 0.054972284 0.22204557
1041500000 -0.065089814 -0.055620886 -32.554226 18.381306 -0.0050416407 -0.0035789751 0.055496186 0.22245422
1042000000 -0.066186495 -0.056167547 -32.518005 18.424286 -0.0048472532 -0.0043626875 0.05620677 0.22243397
1042500000 -0.06605015 -0.056101356 -32.493206 18.46814 -0.0047128764 -0.0040284623 0.056247756 0.22178948
1043000000 -0.066334412 -0.056358993 -32.448357 18.536001 -0.0047755768 -0.0035969571 0.056693219 0.22227381
1043500000 -0.066772111 -0.056247734 -32.392193 18.584501 -0.0053605358 -0.003789407 0.056332555 0.22214568
1044000000 -0.06668622 -0.055506837 -32.370853 18.638508 -0.0049215434 -0.0041690185 0.057235286 0.22227742
1044500000 -0.066906892 -0.055594895 -32.353065 18.699858 -0.0049949246 -0.0042999866 0.058119074 0.22191304
1045000000 -0.066720851 -0.055957172 -32.308956 18.76438 -0.0049546119 -0.0041062171 0.057597406 0.22238654
1045500000 -0.067600854 -0.056031302 -32.285618 18.805325 -0.0051168464 -0.0042179194 0.058194086 0.22268428
1046000000 -0.066811353 -0.055487741 -32.240578 18.883825 -0.0049880897 -0.0038231565 0.057820234 0.22176114
1046500000 -0.067389175 -0.05574929 -32.19994 18.905195 -0.005094937 -0.0040759994 0.058357541 0.22180213
1047000000 -0.067758799 -0.055096313 -32.167881 18.980583 -0.0050498233 -0.0043178163 0.058574006 0.22133295
1047500000 -0.067631073 -0.055673357 -32.150818 19.030104 -0.0047981641 -0.0042572864 0.059050109 0.22147115
1048000000 -0.067815557 -0.05446161 -32.100895 19.079969 -0.0053857835 -0.0040643374 0.059522234 0.221604
1048500000 -0.068034463 -0.055390686 -32.074276 19.146587 -0.0052099512 -0.0037023409 0.058602497 0.22094993
1049000000 -0.068214796 -0.055163562 -32.036129 19.196152 -0.005348247 -0.0042132726 0.059872892 0.22191638
1049500000 -0.068127245 -0.055069398 -31.990665 19.245287 -0.0049752225 -0.003721439 0.059735004 0.22074403
1050000000 -0.068141177 -0.055225592 -31.971773 19.318054 -0.0050993655 -0.0037602002 0.060303353 0.22211368
1050500000 -0.068815477 -0.055272903 -31.924747 19.350557 -0.0048024948 -0.0038600361 0.059950095 0.22149459
1051000000 -0.068377957 -0.055134293 -31.90379 19.419209 -0.0045834756 -0.0040495377 0.060630891 0.22076724
1051500000 -0.06840042 -0.054764003 -31.861748 19.468693 -0.0049971426 -0.0037200965 0.061295465 0.22114809
1052000000 -0.06792897 -0.054806694 -31.814545 19.509682 -0.004909263 -0.0036038561 0.060996819 0.22123447
1052500000 -0.069107786 -0.054873075 -31.787088 19.569469 -0.0050423336 -0.003982889 0.061515506 0.22124195
1053000000 -0.068643175 -0.053993527 -31.766504 19.630531 -0.0050514033 -0.0040274863 0.061575703 0.22063284
1053500000 -0.06927973 -0.05468145 -31.711832 19.694534 -0.0049198363 -0.0039741951 0.062241174 0.22125675
1054000000 -0.068902999 -0.054633327 -31.683107 19.730484 -0.0048732157 -0.003330685 0.062906772 0.22067989
1054500000 -0.069547221 -0.0544044 -31.628475 19.795063 -0.0051679071 -0.0036845766 0.062978253 0.22092125
1055000000 -0.069325641 -0.054388829 -31.622803 19.84651 -0.0051462329 -0.0038522135 0.063658595 0.22065125
1055500000 -0.069937207 -0.054394089 -31.563593 19.908953 -0.0048099803 -0.0038521104 0.064325295 0.22105768
1056000000 -0.069705583 -0.054091945 -31.529011 19.953732 -0.0044667036 -0.0034290785 0.063601889 0.22024833
1056500000 -0.069722429 -0.054049987 -31.49304 19.998476 -0.0051059518 -0.0037796402 0.064549245 0.22092351
1057000000 -0.069514975 -0.054254122 -31.464376 20.077684 -0.0052479832 -0.0033292202 0.063992597 0.21991648
1057500000 -0.069930255 -0.054184262 -31.409239 20.107681 -0.0052098436 -0.0036116843 0.064219974 0.21977441
1058000000 -0.070352197 -0.053604167 -31.40344 20.173973 -0.0052453759 -0.0042758998 0.064413071 0.2200875
1058500000 -0.070493065 -0.053346664 -31.355488 20.217031 -0.0054421215 -0.0040401043 0.065242536 0.21943066
1059000000 -0.069663778 -0.054087617 -31.323233 20.26285 -0.0047818394 -0.0034959288 0.064873792 0.22027297
1059500000 -0.070855536 -0.053464614 -31.273075 20.337574 -0.0050251121 -0.0038744642 0.065632105 0.22087729
1060000000 -0.070595697 -0.054086246 -31.248796 20.36828 -0.004606558 -0.0038398434 0.066097468 0.21960203
1060500000 -0.070882164 -0.053567652 -31.205311 20.436192 -0.004965778 -0.003617577 0.06574627 0.21950281
1061000000 -0.070811078 -0.053390946 -31.17977 20.501326 -0.0054341806 -0.0040880479 0.065638117 0.21975209
1061500000 -0.071177498 -0.053577647 -31.121084 20.540781 -0.0054935399 -0.0036319615 0.066865601 0.21957026
1062000000 -0.070794441 -0.053407703 -31.115448 20.568451 -0.0048611131 -0.0038316585 0.066992588 0.21932104
1062500000 -0.071131714 -0.053215053 -31.056829 20.647116 -0.0052463873 -0.0034660699 0.066488102 0.21916088
1063000000 -0.071872517 -0.053368919 -31.016552 20.71022 -0.0050263288 -0.0037783296 0.067539565 0.21854088
1063500000 -0.071296029 -0.053464681 -30.989391 20.751842 -0.0048800311 -0.0036121944 0.068277672 0.21933977
1064000000 -0.072054967 -0.052946709 -30.954754 20.794956 -0.0052695312 -0.0040326277 0.067892984 0.21970429
1064500000 -0.072161302 -0.053131841 -30.907236 20.874153 -0.0051948153 -0.0038458381 0.068534896 0.21922484
1065000000 -0.071855798 -0.052533809 -30.882252 20.901241 -0.0056471219 -0.003539324 0.06891413 0.218593
1065500000 -0.072177283 -0.052787162 -30.841909 20.947531 -0.0049251211 -0.0036653478 0.068697944 0.21882464
1066000000 -0.072719708 -0.052132878 -30.794491 21.031469 -0.004705932 -0.0048460108 0.068823531 0.21809146
1066500000 -0.072358936 -0.051956974 -30.766714 21.07338 -0.0054673641 -0.0035800235 0.069147699 0.21799052
1067000000 -0.072909422 -0.053164069 -30.711863 21.119852 -0.0051060328 -0.0036483163 0.070049495 0.21771631
1067500000 -0.072250836 -0.052032277 -30.689976 21.183212 -0.0055102604 -0.0038889537 0.068893962 0.21894933
1068000000 -0.073500544 -0.052712388 -30.6553 21.220892 -0.0048600426 -0.0038257018 0.069700494 0.21810609
1068500000 -0.072894663 -0.051917344 -30.617393 21.27557 -0.0050976337 -0.0038508952 0.070352376 0.21826164
1069000000 -0.072589934 -0.052407715 -30.596817 21.315195 -0.0050664507 -0.0037719011 0.070102967 0.21844557
1069500000 -0.072496891 -0.052079957 -30.551701 21.390165 -0.0050857509 -0.0035369399 0.07042294 0.21792145
1070000000 -0.073490113 -0.051658139 -30.50388 21.423246 -0.0053460286 -0.003979716 0.071465477 0.21818151
1070500000 -0.07354603 -0.052119289 -30.485229 21.475561 -0.00501181 -0.0037446215 0.071310923 0.21814433
1071000000 -0.073426105 -0.05225528 -30.417633 21.535805 -0.0049396702 -0.0037042669 0.071505822 0.21788064
1071500000 -0.073935047 -0.052000973 -30.412167 21.614655 -0.0047910931 -0.0035255475 0.071886018 0.21758547
1072000000 -0.074056134 -0.051289946 -30.357788 21.651497 -0.0052366429 -0.0040696636 0.072321758 0.21769874
1072500000 -0.07401482 -0.051313274 -30.310999 21.683231 -0.0049588922 -0.0035938087 0.072937548 0.21729299
1073000000 -0.074272893 -0.051640969 -30.267763 21.74301 -0.0057979031 -0.0036743882 0.072336338 0.21775666
1073500000 -0.073859565 -0.051403634 -30.239935 21.804283 -0.0048706527 -0.0034863902 0.073150322 0.21739544
1074000000 -0.074539639 -0.050989531 -30.169743 21.84618 -0.0053172959 -0.0038110868 0.072869577 0.2170224
1074500000 -0.074772581 -0.051312167 -30.163948 21.903795 -0.0051069679 -0.0038210838 0.073558137 0.21730454
1075000000 -0.074402303 -0.051320866 -30.107317 21.966429 -0.0050537279 -0.0034546021 0.074001528 0.21644655
1075500000 -0.074565969 -0.050869379 -30.083229 21.996193 -0.0050033438 -0.0034546917 0.074437924 0.21730107
1076000000 -0.074711442 -0.050979655 -30.037352 22.060442 -0.004916436 -0.003653907 0.074447535 0.2161606
1076500000 -0.075254723 -0.050747596 -29.998547 22.108303 -0.005278632 -0.0037396895 0.074434154 0.21690516
1077000000 -0.074629679 -0.050455399 -29.97258 22.140917 -0.0055698873 -0.0036667653 0.074359059 0.21670501
1077500000 -0.074693084 -0.051143575 -29.909239 22.194532 -0.0050871228 -0.0036255999 0.07552024 0.21658413
1078000000 -0.075507618 -0.050730333 -29.887794 22.25882 -0.0054394719 -0.0038100402 0.07520473 0.21701656
1078500000 -0.075175062 -0.050530884 -29.822929 22.305592 -0.0055317283 -0.0037382734 0.07579831 0.21694031
1079000000 -0.075623587 -0.050312951 -29.793705 22.366222 -0.00529077 -0.0038651589 0.07592462 0.21650264
1079500000 -0.075590432 -0.050330792 -29.749306 22.408003 -0.0053075515 -0.0038190105 0.07661394 0.21668185
1080000000 -0.075693198 -0.050085384 -29.729076 22.460957 -0.0054234797 -0.0031890578 0.077313289 0.21542169
1080500000 -0.075866804 -0.049955793 -29.664528 22.527056 -0.0056915963 -0.0035111776 0.076719731 0.2161504
1081000000 -0.076192304 -0.049784571 -29.642427 22.571117 -0.005563593 -0.003325368 0.076936699 0.21588461
1081500000 -0.07649339 -0.050224595 -29.609022 22.616196 -0.0055020824 -0.0035307035 0.077185407 0.21612309
1082000000 -0.076356061 -0.050582755 -29.599831 22.662754 -0.0051940777 -0.0034543921 0.077544041 0.21548417
1082500000 -0.076545045 -0.049837254 -29.516523 22.704069 -0.0052334336 -0.0037209305 0.07849431 0.21638107
1083000000 -0.076339744 -0.04975874 -29.472612 22.767767 -0.0052683619 -0.0034177972 0.077707574 0.21618967
1083500000 -0.076484501 -0.049722683 -29.455196 22.814095 -0.0051897285 -0.0033983756 0.078286573 0.21560182
1084000000 -0.076435924 -0.049817268 -29.393551 22.879637 -0.0052600848 -0.0034832312 0.078180209 0.21564858
1084500000 -0.076557346 -0.049887229 -29.364323 22.914162 -0.004925638 -0.0034739666 0.077647284 0.21525931
1085000000 -0.077051774 -0.0499699 -29.296267 22.965872 -0.0048161098 -0.00354047 0.079410508 0.2156509
1085500000 -0.076876365 -0.049185768 -29.296329 23.018284 -0.0049528843 -0.0032274919 0.078890637 0.2160199
1086000000 -0.07761094 -0.049067348 -29.259844 23.066858 -0.0050991098 -0.0035063757 0.07907173 0.21554616
1086500000 -0.077183619 -0.048689555 -29.19433 23.108437 -0.0050810287 -0.0036804916 0.079816803 0.2151386
1087000000 -0.077756189 -0.049464345 -29.158705 23.151793 -0.0052033304 -0.0036819682 0.079912968 0.21487586
1087500000 -0.077826597 -0.049367607 -29.121515 23.209225 -0.0048103966 -0.0033309967 0.080183081 0.2145813
1088000000 -0.077678204 -0.049090676 -29.063591 23.249859 -0.005247918 -0.0035637978 0.080551684 0.21498606
1088500000 -0.078521505 -0.048823427 -29.032537 23.308527 -0.0054519442 -0.0035429229 0.080567174 0.21506368
1089000000 -0.077748887 -0.048546907 -28.978487 23.369635 -0.0054225218 -0.0036734326 0.081417404 0.21482182
1089500000 -0.078534849 -0.048383277 -28.939833 23.419891 -0.0051805475 -0.0033635036 0.081785455 0.21425673
