!Keysight Technologies,N5245A,US52130011,A.10.65.16
!Date: Monday, July 14, 2025 15:08:55
!Correction: S11(Full 1 Port(1)) 
!S1P File: Measurement: S11:
# Hz S  RI   R 50
1000000000 0.043497778 -0.045805458
1000500000 0.043139026 -0.045542654
1001000000 0.042743489 -0.045256678
1001500000 0.042356968 -0.044992108
1002000000 0.041974295 -0.044704769
1002500000 0.041625287 -0.04443644
1003000000 0.041237883 -0.044144742
1003500000 0.040885549 -0.043873727
1004000000 0.040510293 -0.043572102
1004500000 0.040140919 -0.043297626
1005000000 0.039760504 -0.043012641
1005500000 0.039384145 -0.042717785
1006000000 0.039042395 -0.042432938
1006500000 0.038677599 -0.042145655
1007000000 0.038318284 -0.041876081
1007500000 0.03796706 -0.041579261
1008000000 0.037627 -0.041290432
1008500000 0.03724442 -0.040986851
1009000000 0.036905017 -0.040713526
1009500000 0.036551833 -0.040411908
1010000000 0.036202654 -0.040116236
1010500000 0.035858326 -0.039803673
1011000000 0.035508998 -0.039520901
1011500000 0.035155796 -0.039233405
1012000000 0.03482563 -0.038916502
1012500000 0.034485031 -0.038621079
1013000000 0.034147304 -0.038318839
1013500000 0.033812892 -0.038019441
1014000000 0.033478394 -0.037720025
1014500000 0.033128493 -0.037406251
1015000000 0.032784794 -0.03709228
1015500000 0.032469742 -0.036793284
1016000000 0.032142084 -0.036472436
1016500000 0.031811748 -0.036175486
1017000000 0.031488083 -0.03585586
1017500000 0.031168127 -0.035524424
1018000000 0.030834462 -0.035218466
1018500000 0.030513318 -0.034901477
1019000000 0.030198792 -0.034574192
1019500000 0.029875359 -0.034270864
1020000000 0.029578866 -0.033939395
1020500000 0.029259652 -0.03362434
1021000000 0.028938662 -0.033306066
1021500000 0.028639402 -0.032965872
1022000000 0.028335216 -0.032651126
1022500000 0.028022364 -0.032314502
1023000000 0.027716909 -0.032008175
1023500000 0.02742229 -0.031663276
1024000000 0.027114289 -0.031333826
1024500000 0.026824607 -0.030982794
1025000000 0.026514975 -0.030637057
1025500000 0.026220698 -0.030320909
1026000000 0.025938347 -0.029972926
1026500000 0.025653571 -0.029630514
1027000000 0.025370343 -0.029289324
1027500000 0.025081551 -0.028942296
1028000000 0.024810323 -0.028582297
1028500000 0.024534214 -0.028248711
1029000000 0.024247289 -0.027913796
1029500000 0.023967734 -0.027559614
1030000000 0.023705296 -0.027208125
1030500000 0.023436863 -0.026849849
1031000000 0.023144476 -0.02650282
1031500000 0.022884617 -0.026152806
1032000000 0.022611896 -0.025782449
1032500000 0.022370934 -0.025427565
1033000000 0.022108125 -0.025073024
1033500000 0.021823199 -0.024711294
1034000000 0.021555398 -0.024326393
1034500000 0.021327944 -0.023960816
1035000000 0.021079889 -0.023610337
1035500000 0.020816999 -0.023204882
1036000000 0.020587426 -0.022831935
1036500000 0.020365695 -0.022450089
1037000000 0.020124337 -0.0220895
1037500000 0.019886211 -0.02173572
1038000000 0.019662187 -0.021347016
1038500000 0.019430459 -0.02097903
1039000000 0.019203957 -0.020617561
1039500000 0.018989645 -0.020234063
1040000000 0.01877239 -0.019850818
1040500000 0.018551845 -0.019464185
1041000000 0.018340135 -0.019091144
1041500000 0.018114207 -0.01871852
1042000000 0.017924577 -0.018330073
1042500000 0.017713612 -0.017962404
1043000000 0.017524529 -0.017572433
1043500000 0.01732767 -0.017189907
1044000000 0.017128188 -0.016807133
1044500000 0.016926186 -0.016439682
1045000000 0.016745308 -0.016042167
1045500000 0.016552979 -0.015665893
1046000000 0.016366078 -0.015280074
1046500000 0.016189834 -0.01488399
1047000000 0.015996732 -0.014488749
1047500000 0.015812375 -0.01411276
1048000000 0.015652012 -0.013724704
1048500000 0.015471915 -0.013326469
1049000000 0.01530164 -0.012936388
1049500000 0.015143225 -0.012547771
1050000000 0.014982238 -0.012138163
1050500000 0.014821007 -0.011766064
1051000000 0.014661395 -0.011382386
1051500000 0.014503282 -0.010977908
1052000000 0.014359761 -0.010580933
1052500000 0.014212526 -0.010183503
1053000000 0.014060804 -0.0098042497
1053500000 0.013906632 -0.0093831047
1054000000 0.013790417 -0.009004795
1054500000 0.013643265 -0.0085873669
1055000000 0.01350188 -0.008185667
1055500000 0.013372821 -0.0077831629
1056000000 0.013274872 -0.007387551
1056500000 0.0131298 -0.006975295
1057000000 0.01302899 -0.0065674544
1057500000 0.012906501 -0.0061755148
1058000000 0.012789725 -0.005772586
1058500000 0.01268837 -0.0053799362
1059000000 0.012584724 -0.0049652131
1059500000 0.012484238 -0.004565265
1060000000 0.012383146 -0.0041491021
1060500000 0.012300547 -0.0037438874
1061000000 0.012205612 -0.0033477435
1061500000 0.012133965 -0.0029551475
1062000000 0.012046559 -0.0025273836
1062500000 0.011979938 -0.0021195386
1063000000 0.011903006 -0.0017210469
1063500000 0.011816227 -0.0013232027
1064000000 0.011757327 -0.00091788539
1064500000 0.011685367 -0.00051971857
1065000000 0.011631119 -0.00012903362
1065500000 0.011554215 0.00026093324
1066000000 0.011491107 0.00067500264
1066500000 0.011438988 0.0010562706
1067000000 0.011381732 0.0014800765
1067500000 0.011335048 0.0018812979
1068000000 0.011281501 0.0022740569
1068500000 0.011259056 0.0026786118
1069000000 0.011221462 0.0030712953
1069500000 0.011174387 0.0034664576
1070000000 0.011138503 0.0038722584
1070500000 0.011118405 0.0042844177
1071000000 0.011101603 0.0046742652
1071500000 0.011073 0.005061774
1072000000 0.011070398 0.0054679471
1072500000 0.011041134 0.0058622109
1073000000 0.01102839 0.0062596016
1073500000 0.011026862 0.0066444455
1074000000 0.011020558 0.0070506148
1074500000 0.011019072 0.0074389167
1075000000 0.011034489 0.0078191087
1075500000 0.01102126 0.0082223257
1076000000 0.011067022 0.0086030476
1076500000 0.011067062 0.0090067321
1077000000 0.011100817 0.0093735959
1077500000 0.011121843 0.009783064
1078000000 0.011152694 0.010157262
1078500000 0.01118998 0.010545759
1079000000 0.011223807 0.010926486
1079500000 0.011254079 0.011309736
1080000000 0.011304513 0.011693466
1080500000 0.011353145 0.012073038
1081000000 0.011404714 0.012441761
1081500000 0.011457635 0.012802287
1082000000 0.011523564 0.01319355
1082500000 0.011582605 0.013548559
1083000000 0.011645398 0.013898548
1083500000 0.011714692 0.014292904
1084000000 0.011764786 0.014631572
1084500000 0.01183206 0.014999269
1085000000 0.011911187 0.015349651
1085500000 0.011981329 0.015713353
1086000000 0.012055591 0.016068017
1086500000 0.012139391 0.016421033
1087000000 0.012202363 0.016760515
1087500000 0.012285621 0.01712691
1088000000 0.01238554 0.017476574
1088500000 0.012450561 0.017817514
1089000000 0.012551158 0.018160623
1089500000 0.01265123 0.018505162
1090000000 0.012726414 0.018844659
1090500000 0.012821135 0.019184886
1091000000 0.012928394 0.019515697
1091500000 0.013019131 0.01986438
1092000000 0.013118604 0.020198079
1092500000 0.013234073 0.020548584
1093000000 0.013335686 0.020881457
1093500000 0.01344556 0.021211633
1094000000 0.013565298 0.02152379
1094500000 0.013710453 0.021857399
1095000000 0.01382364 0.022166731
1095500000 0.013947056 0.022487026
1096000000 0.01409256 0.022805888
1096500000 0.014225079 0.023118237
1097000000 0.014350004 0.02343875
1097500000 0.014490968 0.023746889
1098000000 0.014614601 0.024049345
1098500000 0.014750791 0.024364037
1099000000 0.014899959 0.024657978
1099500000 0.015025156 0.024974814
1100000000 0.01517079 0.025274735
1100500000 0.015324384 0.025594365
1101000000 0.01547995 0.025912169
1101500000 0.015624104 0.026207183
1102000000 0.015786054 0.026504705
1102500000 0.01596337 0.026811332
1103000000 0.016130315 0.027100937
1103500000 0.016291901 0.027409643
1104000000 0.016481478 0.027699992
1104500000 0.016660972 0.028000396
1105000000 0.01684319 0.028264869
1105500000 0.017040303 0.028544115
1106000000 0.017206265 0.028832532
1106500000 0.01742018 0.029077983
1107000000 0.01762192 0.029343231
1107500000 0.017827768 0.029595977
1108000000 0.018027583 0.029855708
1108500000 0.018235244 0.030101288
1109000000 0.018434221 0.030346166
1109500000 0.018649172 0.030594366
1110000000 0.018870231 0.030823348
1110500000 0.019100968 0.031050647
1111000000 0.019318627 0.031286854
1111500000 0.019535867 0.031504955
1112000000 0.01975492 0.03170855
1112500000 0.019983849 0.031927045
1113000000 0.020209141 0.032114234
1113500000 0.020432634 0.032317284
1114000000 0.020676294 0.032504261
1114500000 0.020891113 0.032694742
1115000000 0.021120949 0.032870926
1115500000 0.021340344 0.033046301
1116000000 0.021560172 0.033217631
1116500000 0.021784645 0.033381376
1117000000 0.022018239 0.03354777
1117500000 0.022239028 0.033691127
1118000000 0.02248078 0.033843875
1118500000 0.022701714 0.034014396
1119000000 0.022927949 0.034151558
1119500000 0.023153218 0.034290437
1120000000 0.023374982 0.034418203
1120500000 0.023607181 0.034560971
1121000000 0.023832366 0.034674942
1121500000 0.02403404 0.034800213
1122000000 0.024258025 0.034919649
1122500000 0.024487086 0.035046194
1123000000 0.024712414 0.035153903
1123500000 0.024929283 0.035261698
1124000000 0.025138428 0.03537472
1124500000 0.02536797 0.035464842
1125000000 0.02558654 0.035550278
1125500000 0.0258075 0.035648111
1126000000 0.026014354 0.035750113
1126500000 0.026235839 0.035820127
1127000000 0.026440453 0.035911165
1127500000 0.026641296 0.035978906
1128000000 0.026866464 0.036058482
1128500000 0.027070377 0.036121409
1129000000 0.02729043 0.03618715
1129500000 0.027483858 0.036252007
1130000000 0.027694838 0.036308233
1130500000 0.027890239 0.03635795
1131000000 0.028083678 0.036410969
1131500000 0.028277211 0.036449689
1132000000 0.028491294 0.036512781
1132500000 0.028688755 0.0365417
1133000000 0.028878069 0.036587041
1133500000 0.029060891 0.036608599
1134000000 0.029244445 0.036656417
1134500000 0.029418008 0.036673483
1135000000 0.029610569 0.036684833
1135500000 0.029789479 0.036710616
1136000000 0.029953929 0.036740728
1136500000 0.030142032 0.036767185
1137000000 0.030312864 0.03677582
1137500000 0.030490385 0.03681159
1138000000 0.030645581 0.036814101
1138500000 0.030836547 0.036836166
1139000000 0.0309992 0.036845438
1139500000 0.031162674 0.036847681
1140000000 0.031332999 0.036858004
1140500000 0.031486671 0.036855359
1141000000 0.031636488 0.036842573
1141500000 0.031805526 0.0368446
1142000000 0.03197265 0.036834665
1142500000 0.032097846 0.036827162
1143000000 0.032254759 0.036823347
1143500000 0.032395002 0.036819767
1144000000 0.032535251 0.0367961
1144500000 0.032665022 0.036783513
1145000000 0.032812443 0.03675421
1145500000 0.032945823 0.036743637
1146000000 0.033057157 0.036698669
1146500000 0.033181608 0.036686186
1147000000 0.033322755 0.036666885
1147500000 0.033436481 0.036649369
1148000000 0.033548672 0.036617056
1148500000 0.033669017 0.036579214
1149000000 0.033763316 0.036556281
1149500000 0.033875242 0.036539733
1150000000 0.03397768 0.036516156
1150500000 0.034070764 0.036483251
1151000000 0.034166176 0.036467984
1151500000 0.034267671 0.036441393
1152000000 0.034373444 0.036382053
1152500000 0.034429424 0.036354169
1153000000 0.03453147 0.036344469
1153500000 0.034618225 0.036293957
1154000000 0.034698002 0.036286052
1154500000 0.034762893 0.036258679
1155000000 0.034835584 0.036219742
1155500000 0.034918375 0.036200382
1156000000 0.034974594 0.036159042
1156500000 0.035049926 0.036136366
1157000000 0.035136122 0.036104135
1157500000 0.035175942 0.036069363
1158000000 0.035242312 0.03606572
1158500000 0.035290394 0.036024977
1159000000 0.035338994 0.036012899
1159500000 0.03538622 0.035983842
1160000000 0.035449676 0.035959147
1160500000 0.035480455 0.035933238
1161000000 0.035527654 0.035921592
1161500000 0.035556406 0.035913378
1162000000 0.035594489 0.035892453
1162500000 0.03563109 0.035868805
1163000000 0.03567015 0.03586635
1163500000 0.035705272 0.035857718
1164000000 0.035726212 0.035850853
1164500000 0.035759248 0.035836905
1165000000 0.035782836 0.035836458
1165500000 0.035808817 0.03582773
1166000000 0.035833742 0.035818394
1166500000 0.035863679 0.03579665
1167000000 0.035876904 0.035826489
1167500000 0.035886105 0.035810571
1168000000 0.035916179 0.035809439
1168500000 0.035936922 0.035819627
1169000000 0.035956677 0.035836749
1169500000 0.035959385 0.035846289
1170000000 0.035975829 0.035836648
1170500000 0.03598965 0.035852831
1171000000 0.035996027 0.035870638
1171500000 0.036008961 0.035883114
1172000000 0.036021933 0.035912629
1172500000 0.03604031 0.035926867
1173000000 0.036045589 0.035946038
1173500000 0.036049441 0.035984788
1174000000 0.036065973 0.036008731
1174500000 0.036054563 0.036045551
1175000000 0.036067717 0.036065232
1175500000 0.036067106 0.036102131
1176000000 0.036089707 0.036144137
1176500000 0.036087964 0.036180306
1177000000 0.036092732 0.036229871
1177500000 0.036089264 0.036265269
1178000000 0.036110062 0.03631223
1178500000 0.036111049 0.036365889
1179000000 0.036111385 0.036413047
1179500000 0.036128659 0.036453687
1180000000 0.036142886 0.036513701
1180500000 0.036145896 0.036568891
1181000000 0.036149051 0.036630079
1181500000 0.036165755 0.036678836
1182000000 0.03616304 0.036736485
1182500000 0.036190577 0.036783058
1183000000 0.036188167 0.036847617
1183500000 0.036192074 0.03691661
1184000000 0.036217172 0.036980961
1184500000 0.036228869 0.037047073
1185000000 0.036228806 0.037112124
1185500000 0.036265902 0.03718546
1186000000 0.036271907 0.037249513
1186500000 0.036292262 0.037328191
1187000000 0.036300752 0.037409823
1187500000 0.036326993 0.037475917
1188000000 0.036360614 0.037538588
1188500000 0.036369991 0.037641387
1189000000 0.036379665 0.037723437
1189500000 0.036421027 0.037796028
1190000000 0.036442813 0.03789077
1190500000 0.036454346 0.037968423
1191000000 0.036499068 0.03805773
1191500000 0.036521774 0.03815119
1192000000 0.036548875 0.038233753
1192500000 0.036579963 0.038332164
1193000000 0.03662147 0.038401872
1193500000 0.036650803 0.038503446
1194000000 0.036686655 0.038592953
1194500000 0.03671667 0.038677309
1195000000 0.036759596 0.038768768
1195500000 0.036799219 0.038866527
1196000000 0.036837798 0.03896939
1196500000 0.036890451 0.03906507
1197000000 0.036923662 0.039164755
1197500000 0.036964498 0.039266162
1198000000 0.037016373 0.039353505
1198500000 0.037082173 0.03946428
1199000000 0.037111871 0.039559588
1199500000 0.03717003 0.039665479
1200000000 0.0372268 0.039765202
1200500000 0.037274528 0.03988421
1201000000 0.037339784 0.039976455
1201500000 0.037398413 0.040086657
1202000000 0.037474439 0.040192403
1202500000 0.037514824 0.040310219
1203000000 0.03757466 0.040389258
1203500000 0.037652608 0.040512156
1204000000 0.037715916 0.040621772
1204500000 0.037784811 0.040733576
1205000000 0.03785193 0.040826079
1205500000 0.037942581 0.040924385
1206000000 0.038013984 0.041063625
1206500000 0.038076598 0.041170597
1207000000 0.038176101 0.04128173
1207500000 0.038263366 0.041381251
1208000000 0.038334712 0.041495718
1208500000 0.038440898 0.041601866
1209000000 0.038530681 0.041714616
1209500000 0.038608689 0.041832455
1210000000 0.038699374 0.041946154
1210500000 0.038791168 0.042052139
1211000000 0.03890004 0.042147275
1211500000 0.039002493 0.042277962
1212000000 0.039088588 0.042383615
1212500000 0.03919166 0.042477258
1213000000 0.039295118 0.042574119
1213500000 0.039394632 0.042691696
1214000000 0.039491963 0.042800117
1214500000 0.039603565 0.042893801
1215000000 0.039719645 0.04299489
1215500000 0.039813492 0.043108616
1216000000 0.039939821 0.043203294
1216500000 0.040040299 0.043320876
1217000000 0.040150486 0.043417525
1217500000 0.04025925 0.043532625
1218000000 0.040395621 0.043624617
1218500000 0.040511642 0.043721579
1219000000 0.040629718 0.043826219
1219500000 0.040752582 0.043930311
1220000000 0.040874962 0.044021077
1220500000 0.041009992 0.044118002
1221000000 0.041114714 0.044202514
1221500000 0.041242365 0.044306155
1222000000 0.041369934 0.044386432
1222500000 0.041485216 0.044481307
1223000000 0.041615997 0.0445849
1223500000 0.041736066 0.044655111
1224000000 0.041839052 0.044742946
1224500000 0.041963395 0.044838514
1225000000 0.042081755 0.044933446
1225500000 0.04220229 0.045020167
1226000000 0.042326156 0.045111716
1226500000 0.042445064 0.045196861
1227000000 0.042562671 0.045290474
1227500000 0.042684834 0.045378473
1228000000 0.042810109 0.04545518
1228500000 0.042931747 0.04554984
1229000000 0.043060325 0.045637086
1229500000 0.043191072 0.045743506
1230000000 0.043319628 0.04583247
1230500000 0.043449551 0.045912772
1231000000 0.043587625 0.046027295
1231500000 0.043709479 0.046110775
1232000000 0.043856628 0.04621508
1232500000 0.043995246 0.046301961
1233000000 0.044115428 0.046404272
1233500000 0.044257451 0.046504341
1234000000 0.044411939 0.046594776
1234500000 0.04455851 0.046680856
1235000000 0.04470671 0.046778902
1235500000 0.044856034 0.046879902
1236000000 0.044998378 0.046971358
1236500000 0.045162752 0.047069021
1237000000 0.045328863 0.047155812
1237500000 0.045485765 0.047253262
1238000000 0.045656718 0.047348451
1238500000 0.045813151 0.047431394
1239000000 0.045988217 0.047524136
1239500000 0.046141192 0.047604557
1240000000 0.04630921 0.047699109
1240500000 0.046501815 0.047784191
1241000000 0.04667433 0.047864091
1241500000 0.046856906 0.04794994
1242000000 0.047033712 0.048026681
1242500000 0.047219932 0.048108447
1243000000 0.047391064 0.048179455
1243500000 0.047588769 0.048262544
1244000000 0.047764499 0.048336498
1244500000 0.047950733 0.048423193
1245000000 0.048136964 0.048494216
1245500000 0.04832799 0.048563335
1246000000 0.048511334 0.048645455
1246500000 0.048714757 0.048715394
1247000000 0.048884477 0.048790809
1247500000 0.049086772 0.048868861
1248000000 0.049278367 0.048927166
1248500000 0.049470183 0.048984565
1249000000 0.049673807 0.049057756
1249500000 0.049876202 0.049118519
1250000000 0.050085284 0.049174853
1250500000 0.050268076 0.049237613
1251000000 0.050497174 0.049300727
1251500000 0.050688025 0.049373183
1252000000 0.05089872 0.049430035
1252500000 0.051122088 0.049480896
1253000000 0.051305085 0.049525507
1253500000 0.051522162 0.049602456
1254000000 0.051713821 0.049649019
1254500000 0.051926311 0.049710404
1255000000 0.052137829 0.049771037
1255500000 0.052361626 0.049830321
1256000000 0.052561495 0.049888641
1256500000 0.05279604 0.049943853
1257000000 0.053016495 0.049992558
1257500000 0.053239193 0.050045703
1258000000 0.053462572 0.050084405
1258500000 0.053689171 0.050118759
1259000000 0.053918242 0.050173033
1259500000 0.054130226 0.050215572
1260000000 0.054382842 0.050263491
1260500000 0.054601543 0.050287813
1261000000 0.054839015 0.050321452
1261500000 0.05507838 0.050367538
1262000000 0.055309828 0.050403502
1262500000 0.055550586 0.050444715
1263000000 0.055787515 0.050470628
1263500000 0.05603122 0.050518405
1264000000 0.056290422 0.050531454
1264500000 0.056546748 0.050526749
1265000000 0.056799542 0.050556511
1265500000 0.0570531 0.050549109
1266000000 0.057311635 0.050554313
1266500000 0.057557855 0.05056487
1267000000 0.057816923 0.050562974
1267500000 0.058081109 0.050568067
1268000000 0.058337983 0.050571024
1268500000 0.058602739 0.050559036
1269000000 0.058852192 0.050561424
1269500000 0.059136234 0.050541673
1270000000 0.059402306 0.050530743
1270500000 0.05967233 0.050502297
1271000000 0.059905495 0.050476152
1271500000 0.060190145 0.050453246
1272000000 0.060454275 0.050436661
1272500000 0.060727376 0.050410666
1273000000 0.060980763 0.050381314
1273500000 0.061255921 0.050357215
1274000000 0.06153452 0.050305482
