!Keysight Technologies,N5245A,US52130011,A.10.65.16
!Date: Monday, July 14, 2025 15:52:20
!Correction: S11(Full 1 Port(1)) 
!S1P File: Measurement: S11:
# Hz S  RI   R 50
1000000000 0.061353236 -0.058741353
1000500000 0.060953666 -0.058519252
1001000000 0.060563464 -0.058263782
1001500000 0.060158167 -0.058035187
1002000000 0.059791606 -0.057790473
1002500000 0.059404757 -0.057558045
1003000000 0.059028856 -0.05730002
1003500000 0.058641963 -0.057076335
1004000000 0.058261581 -0.056821238
1004500000 0.057881117 -0.056574728
1005000000 0.057512499 -0.056310527
1005500000 0.057133678 -0.056069508
1006000000 0.056761242 -0.055815473
1006500000 0.056391198 -0.055593666
1007000000 0.056032404 -0.055329729
1007500000 0.055644166 -0.055086862
1008000000 0.055319738 -0.054821815
1008500000 0.054941688 -0.054584667
1009000000 0.054584872 -0.054332033
1009500000 0.054220468 -0.054107688
1010000000 0.053904336 -0.053844996
1010500000 0.053543992 -0.053600546
1011000000 0.053202841 -0.05337305
1011500000 0.052844711 -0.053111676
1012000000 0.052495003 -0.052866824
1012500000 0.052175596 -0.052618835
1013000000 0.051832475 -0.0523565
1013500000 0.051485211 -0.052127194
1014000000 0.051155735 -0.051891066
1014500000 0.050843328 -0.051617991
1015000000 0.050492011 -0.051389433
1015500000 0.050165154 -0.051140692
1016000000 0.049864065 -0.050894912
1016500000 0.049519602 -0.050642181
1017000000 0.049192917 -0.050387911
1017500000 0.048869375 -0.050139658
1018000000 0.048561312 -0.049890399
1018500000 0.048243713 -0.049655993
1019000000 0.047918234 -0.0494022
1019500000 0.047615029 -0.049139019
1020000000 0.047314733 -0.048907466
1020500000 0.046996716 -0.048669763
1021000000 0.046692301 -0.04840856
1021500000 0.046368476 -0.048158135
1022000000 0.046064399 -0.047912352
1022500000 0.045765799 -0.047671128
1023000000 0.045464799 -0.047429763
1023500000 0.045161948 -0.047187332
1024000000 0.04486423 -0.046938911
1024500000 0.044553488 -0.046681572
1025000000 0.044265054 -0.046454128
1025500000 0.043958146 -0.046192139
1026000000 0.043688357 -0.04596097
1026500000 0.043391868 -0.045707341
1027000000 0.043094832 -0.045456074
1027500000 0.04281434 -0.045210727
1028000000 0.042534038 -0.044959065
1028500000 0.042230707 -0.044718422
1029000000 0.041945226 -0.044466883
1029500000 0.041659277 -0.044212241
1030000000 0.041372996 -0.04397814
1030500000 0.041088171 -0.043734133
1031000000 0.040813491 -0.043474711
1031500000 0.040538367 -0.043220818
1032000000 0.040256191 -0.042971496
1032500000 0.039968573 -0.042700309
1033000000 0.039709453 -0.04246128
1033500000 0.039425664 -0.042208593
1034000000 0.039181635 -0.041962549
1034500000 0.038906284 -0.041717581
1035000000 0.038631443 -0.041468825
1035500000 0.038375985 -0.041219007
1036000000 0.038086202 -0.040961932
1036500000 0.037828527 -0.040697858
1037000000 0.037559215 -0.040444288
1037500000 0.037305299 -0.04020185
1038000000 0.037035991 -0.039940905
1038500000 0.03677468 -0.039684597
1039000000 0.036531523 -0.039421715
1039500000 0.036276072 -0.03917015
1040000000 0.03602948 -0.038918339
1040500000 0.035785824 -0.038654327
1041000000 0.035541505 -0.038428515
1041500000 0.035294358 -0.038160823
1042000000 0.035035767 -0.037910733
1042500000 0.034807529 -0.037641656
1043000000 0.034561422 -0.037398368
1043500000 0.034312431 -0.037147529
1044000000 0.034053933 -0.036872335
1044500000 0.033829883 -0.036592308
1045000000 0.033574924 -0.036350075
1045500000 0.033337411 -0.036106076
1046000000 0.033122238 -0.035836939
1046500000 0.032883797 -0.035566583
1047000000 0.03264796 -0.035301927
1047500000 0.032405086 -0.035057072
1048000000 0.03219239 -0.034797247
1048500000 0.031958725 -0.034539595
1049000000 0.031725459 -0.03429009
1049500000 0.031517461 -0.034032747
1050000000 0.031293251 -0.033766333
1050500000 0.031067552 -0.033512086
1051000000 0.030820394 -0.033241659
1051500000 0.030598337 -0.032980025
1052000000 0.03037731 -0.032724556
1052500000 0.030161563 -0.032469369
1053000000 0.029936073 -0.032214552
1053500000 0.029721705 -0.031942222
1054000000 0.029505694 -0.0316917
1054500000 0.029282486 -0.031438567
1055000000 0.029067524 -0.031143371
1055500000 0.028853791 -0.030881051
1056000000 0.028624242 -0.030608486
1056500000 0.028407389 -0.030351233
1057000000 0.028204624 -0.030080011
1057500000 0.02800186 -0.029803067
1058000000 0.027781444 -0.029543869
1058500000 0.02758844 -0.029270884
1059000000 0.027373718 -0.02898659
1059500000 0.027187794 -0.028736206
1060000000 0.02698122 -0.028457563
1060500000 0.026776081 -0.028187875
1061000000 0.026580747 -0.02791773
1061500000 0.026389163 -0.027638506
1062000000 0.026175139 -0.027371703
1062500000 0.02597364 -0.027083393
1063000000 0.025797386 -0.026812382
1063500000 0.025603132 -0.026548348
1064000000 0.025420342 -0.026267963
1064500000 0.025231324 -0.02599551
1065000000 0.025039131 -0.025695531
1065500000 0.024857379 -0.025419453
1066000000 0.024664361 -0.025150554
1066500000 0.02448367 -0.024866447
1067000000 0.024299232 -0.024601202
1067500000 0.024126597 -0.024310712
1068000000 0.023938695 -0.024017865
1068500000 0.02377511 -0.023733614
1069000000 0.0235996 -0.023445744
1069500000 0.023426883 -0.023181748
1070000000 0.023246247 -0.022897726
1070500000 0.023080381 -0.022605749
1071000000 0.022918878 -0.022320252
1071500000 0.022761794 -0.022023201
1072000000 0.02259282 -0.021764852
1072500000 0.022437016 -0.021467777
1073000000 0.02227057 -0.021170035
1073500000 0.022123177 -0.020887099
1074000000 0.021951951 -0.020597251
1074500000 0.021812186 -0.020297347
1075000000 0.021663098 -0.02001543
1075500000 0.021501468 -0.019719323
1076000000 0.021338774 -0.019405026
1076500000 0.021213923 -0.019132644
1077000000 0.021064246 -0.018836923
1077500000 0.020916838 -0.01855767
1078000000 0.020784853 -0.018264672
1078500000 0.020676479 -0.017955799
1079000000 0.020506456 -0.017674686
1079500000 0.020372739 -0.017379759
1080000000 0.020248914 -0.017078787
1080500000 0.020109162 -0.016779631
1081000000 0.019978393 -0.016483111
1081500000 0.019850451 -0.016198277
1082000000 0.019738954 -0.015900504
1082500000 0.019629331 -0.015602426
1083000000 0.019494118 -0.015308884
1083500000 0.019367991 -0.015005643
1084000000 0.01926193 -0.014688442
1084500000 0.019150386 -0.01439559
1085000000 0.019030487 -0.014104274
1085500000 0.018920027 -0.013798733
1086000000 0.018803149 -0.0134964
1086500000 0.018708827 -0.013201199
1087000000 0.018609237 -0.012914657
1087500000 0.018509498 -0.01259801
1088000000 0.018405376 -0.012308238
1088500000 0.018318485 -0.012021024
1089000000 0.018213032 -0.011703411
1089500000 0.018125674 -0.011416333
1090000000 0.018032877 -0.011106386
1090500000 0.017953869 -0.010812881
1091000000 0.017873729 -0.01052031
1091500000 0.017791213 -0.010195915
1092000000 0.017698055 -0.009910644
1092500000 0.017633343 -0.0096107712
1093000000 0.017552376 -0.0093071032
1093500000 0.017481098 -0.0090038599
1094000000 0.017419873 -0.0087147616
1094500000 0.017340075 -0.0084171677
1095000000 0.017276431 -0.0081122387
1095500000 0.017218696 -0.0078037246
1096000000 0.017151838 -0.0075147068
1096500000 0.017081654 -0.0072128326
1097000000 0.017037902 -0.0069297249
1097500000 0.016989354 -0.0066207959
1098000000 0.016945643 -0.0063053183
1098500000 0.01688135 -0.0060169976
1099000000 0.016849989 -0.0057127993
1099500000 0.016799919 -0.0054193987
1100000000 0.016760318 -0.0051360899
1100500000 0.016711645 -0.0048379609
1101000000 0.016677858 -0.0045462493
1101500000 0.016639642 -0.0042352825
1102000000 0.01662045 -0.0039393203
1102500000 0.016584283 -0.0036493097
1103000000 0.016551645 -0.0033788343
1103500000 0.016522259 -0.0030571003
1104000000 0.016498264 -0.0027777262
1104500000 0.016488703 -0.0024856133
1105000000 0.016469778 -0.0021951571
1105500000 0.016452163 -0.0018956807
1106000000 0.016436752 -0.0016125717
1106500000 0.016432568 -0.0013411222
1107000000 0.016412087 -0.0010393175
1107500000 0.016407996 -0.00074813364
1108000000 0.016405381 -0.0004699156
1108500000 0.01640239 -0.00018534668
1109000000 0.016407436 8.9899928e-005
1109500000 0.016392076 0.00038588129
1110000000 0.016403718 0.00066366163
1110500000 0.016409416 0.00093782251
1111000000 0.016410202 0.0012257196
1111500000 0.016413389 0.0015157022
1112000000 0.016438724 0.0017907327
1112500000 0.016451888 0.0020750358
1113000000 0.016459594 0.002334612
1113500000 0.016477859 0.0026254044
1114000000 0.016496073 0.0028890714
1114500000 0.016515277 0.0031721368
1115000000 0.01654602 0.00344861
1115500000 0.016567146 0.0037159726
1116000000 0.016591329 0.003985859
1116500000 0.016637485 0.0042565698
1117000000 0.016655821 0.0045200493
1117500000 0.016692674 0.0047900151
1118000000 0.016715659 0.0050579216
1118500000 0.016775677 0.0053256457
1119000000 0.016807899 0.0055839187
1119500000 0.016852878 0.0058498024
1120000000 0.016887588 0.0061102472
1120500000 0.0169356 0.0063818316
1121000000 0.016966891 0.0066339266
1121500000 0.017007561 0.0069044237
1122000000 0.017068787 0.0071720094
1122500000 0.017119464 0.0074080946
1123000000 0.017172176 0.0076911291
1123500000 0.017231461 0.0079605067
1124000000 0.017293099 0.0081993528
1124500000 0.017343463 0.0084571606
1125000000 0.017412981 0.0086987633
1125500000 0.017485453 0.0089758895
1126000000 0.017539173 0.0092263129
1126500000 0.017620001 0.0094803032
1127000000 0.017693812 0.0097207194
1127500000 0.017777145 0.0099680768
1128000000 0.017850539 0.010206123
1128500000 0.017942507 0.010466477
1129000000 0.018018711 0.010710387
1129500000 0.018102879 0.010948603
1130000000 0.018187981 0.011174535
1130500000 0.018291492 0.011406106
1131000000 0.018389517 0.011635369
1131500000 0.018485805 0.011860573
1132000000 0.018578621 0.012091975
1132500000 0.018661194 0.01230486
1133000000 0.018754948 0.012517332
1133500000 0.018868858 0.012738916
1134000000 0.018955534 0.012959016
1134500000 0.019082099 0.013201226
1135000000 0.019177591 0.013388085
1135500000 0.019290041 0.013596949
1136000000 0.019397836 0.013817059
1136500000 0.019510897 0.014014916
1137000000 0.019626809 0.014205668
1137500000 0.019740347 0.014403632
1138000000 0.019849075 0.014606297
1138500000 0.019972885 0.014798415
1139000000 0.020085903 0.015005847
1139500000 0.020206163 0.015180105
1140000000 0.020319756 0.015366411
1140500000 0.020438896 0.015533412
1141000000 0.020541037 0.015712947
1141500000 0.020653868 0.015902372
1142000000 0.020774702 0.016091408
1142500000 0.020893257 0.016264958
1143000000 0.021012563 0.016440503
1143500000 0.021139914 0.016627386
1144000000 0.021257089 0.01681559
1144500000 0.021365006 0.016975313
1145000000 0.021503972 0.017147712
1145500000 0.021638811 0.017317837
1146000000 0.021759624 0.017486451
1146500000 0.021884533 0.01765671
1147000000 0.022028621 0.017835228
1147500000 0.022151355 0.017953975
1148000000 0.022284426 0.018123539
1148500000 0.022417799 0.018282956
1149000000 0.022539724 0.018450916
1149500000 0.022672242 0.01858463
1150000000 0.022831704 0.018725514
1150500000 0.022956794 0.018883629
1151000000 0.023099011 0.01901901
1151500000 0.023217084 0.019153655
1152000000 0.023354132 0.019283025
1152500000 0.023493463 0.019409431
1153000000 0.023628963 0.019541783
1153500000 0.023769861 0.019673476
1154000000 0.02389537 0.019810976
1154500000 0.024028908 0.019926876
1155000000 0.024163641 0.020054545
1155500000 0.024298606 0.020173427
1156000000 0.024430871 0.020291163
1156500000 0.024561234 0.020426134
1157000000 0.024696553 0.020528041
1157500000 0.024826201 0.02065585
1158000000 0.024941772 0.020731686
1158500000 0.025094446 0.020865059
1159000000 0.025223823 0.02096227
1159500000 0.025353281 0.021065703
1160000000 0.025484286 0.021172153
1160500000 0.025623675 0.021274243
1161000000 0.025757724 0.021374153
1161500000 0.025891881 0.02147036
1162000000 0.02602095 0.021574283
1162500000 0.026150081 0.02166635
1163000000 0.026276551 0.021767952
1163500000 0.026407152 0.021852154
1164000000 0.02653615 0.021946738
1164500000 0.026667884 0.022020495
1165000000 0.026783476 0.022105725
1165500000 0.026940465 0.022202501
1166000000 0.027058881 0.02227398
1166500000 0.027177904 0.022363866
1167000000 0.027307959 0.022434687
1167500000 0.027439509 0.022516735
1168000000 0.027556892 0.022605423
1168500000 0.027668104 0.022671713
1169000000 0.027808478 0.022757383
1169500000 0.027919529 0.022823863
1170000000 0.028043995 0.022903312
1170500000 0.028169604 0.022957943
1171000000 0.028294377 0.023032671
1171500000 0.028418358 0.023085885
1172000000 0.028537039 0.023155112
1172500000 0.028647285 0.023221614
1173000000 0.028775945 0.023281507
1173500000 0.028896574 0.023352252
1174000000 0.029013513 0.023406154
1174500000 0.029123683 0.023455992
1175000000 0.029242054 0.023518706
1175500000 0.029358173 0.02357332
1176000000 0.029459521 0.023623088
1176500000 0.029580869 0.023673587
1177000000 0.029697342 0.023716545
1177500000 0.029800622 0.02377536
1178000000 0.029904407 0.023827195
1178500000 0.029997818 0.023882978
1179000000 0.030110525 0.023920758
1179500000 0.03022214 0.023969596
1180000000 0.030311173 0.024011856
1180500000 0.030420857 0.024077997
1181000000 0.030525142 0.024113871
1181500000 0.03063621 0.024164572
1182000000 0.030730985 0.024206325
1182500000 0.030844931 0.024242092
1183000000 0.030934708 0.024296043
1183500000 0.031032108 0.024351273
1184000000 0.031123577 0.024385557
1184500000 0.031232402 0.024434326
1185000000 0.031328235 0.024475217
1185500000 0.031422887 0.024502188
1186000000 0.031514816 0.024555502
1186500000 0.031603087 0.024587648
1187000000 0.031695087 0.024638191
1187500000 0.031806938 0.024685008
1188000000 0.031886082 0.024709078
1188500000 0.031968255 0.024742492
1189000000 0.032069162 0.024792826
1189500000 0.032161798 0.024844332
1190000000 0.032232489 0.024867387
1190500000 0.032334346 0.024917142
1191000000 0.032404594 0.024959583
1191500000 0.03250017 0.02499352
1192000000 0.032596234 0.025022151
1192500000 0.03266909 0.025062833
1193000000 0.032751251 0.02510101
1193500000 0.0328428 0.025143614
1194000000 0.032919366 0.025167273
1194500000 0.033017196 0.025224624
1195000000 0.033085905 0.025259718
1195500000 0.033170193 0.025308615
1196000000 0.033252914 0.025331484
1196500000 0.033336062 0.025381261
1197000000 0.03341252 0.025422733
1197500000 0.033496648 0.025456244
1198000000 0.033580687 0.025496537
1198500000 0.033659235 0.025532115
1199000000 0.033720121 0.02557132
1199500000 0.033822022 0.025630137
1200000000 0.033894468 0.025661005
1200500000 0.033963278 0.025713313
1201000000 0.034048352 0.025747126
1201500000 0.034128036 0.025795154
1202000000 0.034206804 0.025838366
1202500000 0.03426956 0.02587406
1203000000 0.034359522 0.025906894
1203500000 0.034441799 0.025970779
1204000000 0.034510482 0.026011949
1204500000 0.034591671 0.026046937
1205000000 0.03465227 0.026089374
1205500000 0.034757502 0.026145302
1206000000 0.034819089 0.026181553
1206500000 0.034899887 0.026233325
1207000000 0.034983288 0.026268741
1207500000 0.03505772 0.026328931
1208000000 0.035132289 0.02636659
1208500000 0.035212643 0.02641774
1209000000 0.035290238 0.026457742
1209500000 0.035365652 0.02649953
1210000000 0.035440456 0.02657442
1210500000 0.03554504 0.026610177
1211000000 0.035616811 0.026666392
1211500000 0.035701361 0.026710076
1212000000 0.035776399 0.026771773
1212500000 0.035864677 0.026808539
1213000000 0.035943087 0.026854191
1213500000 0.036023986 0.026913559
1214000000 0.036114998 0.026989721
1214500000 0.03619561 0.027019236
1215000000 0.036298636 0.027083119
1215500000 0.036378548 0.027119583
1216000000 0.036461547 0.027171388
1216500000 0.036551796 0.027219189
1217000000 0.03663725 0.027275003
1217500000 0.036724169 0.02733626
1218000000 0.036819041 0.02737641
1218500000 0.036908098 0.027437458
1219000000 0.036997501 0.027467135
1219500000 0.037086066 0.027521146
1220000000 0.037181959 0.027582306
1220500000 0.037276052 0.027630603
1221000000 0.037379175 0.027679307
1221500000 0.037474714 0.027745584
1222000000 0.037571855 0.027782325
1222500000 0.03767217 0.027838185
1223000000 0.037756354 0.027901649
1223500000 0.03787661 0.027927641
1224000000 0.037966076 0.027981555
1224500000 0.038069483 0.028041022
1225000000 0.038167801 0.028075852
1225500000 0.038281906 0.028140282
1226000000 0.038390186 0.028176131
1226500000 0.038488429 0.02822694
1227000000 0.038604539 0.028277883
1227500000 0.038704533 0.028321242
1228000000 0.038812947 0.028382091
1228500000 0.038927466 0.028412847
1229000000 0.039038811 0.028472099
1229500000 0.039157692 0.028507257
1230000000 0.039259024 0.028563589
1230500000 0.039382655 0.028596366
1231000000 0.039494723 0.028644323
1231500000 0.039617959 0.028697094
1232000000 0.039736267 0.028734915
1232500000 0.039858192 0.028780999
1233000000 0.0399791 0.028828295
1233500000 0.040108737 0.028851934
1234000000 0.040224537 0.028894259
1234500000 0.040339112 0.028930457
1235000000 0.040462177 0.028960764
1235500000 0.040586766 0.029002689
1236000000 0.040708248 0.029044375
1236500000 0.040836729 0.02907916
1237000000 0.040958423 0.029104488
1237500000 0.041084364 0.02914634
1238000000 0.041213278 0.029172968
1238500000 0.041344818 0.029205117
1239000000 0.041466422 0.029236557
1239500000 0.041594714 0.029261943
1240000000 0.041744158 0.029303437
1240500000 0.041864537 0.029319456
1241000000 0.042005744 0.029362362
1241500000 0.042127956 0.029376876
1242000000 0.042266008 0.02940757
1242500000 0.042404365 0.029434705
1243000000 0.042532623 0.029461563
1243500000 0.042661581 0.029488329
1244000000 0.042812943 0.029499946
1244500000 0.042959992 0.029532945
1245000000 0.043090183 0.029549576
1245500000 0.043220371 0.029568812
1246000000 0.04337769 0.029572243
1246500000 0.04350834 0.029592965
1247000000 0.043664616 0.029600136
1247500000 0.043806016 0.029624537
1248000000 0.043955512 0.02962254
1248500000 0.044100851 0.029624086
1249000000 0.044247784 0.029639417
1249500000 0.044394474 0.029643908
1250000000 0.044543281 0.029663945
1250500000 0.044695619 0.029670753
1251000000 0.044844151 0.029676693
1251500000 0.045000374 0.029657122
1252000000 0.045150727 0.029674189
1252500000 0.045311712 0.029665397
1253000000 0.045484073 0.02965633
1253500000 0.045611985 0.029662322
1254000000 0.045769475 0.029654041
1254500000 0.045927249 0.029645788
1255000000 0.046074376 0.029633481
1255500000 0.046224125 0.029618604
1256000000 0.046377555 0.0296093
1256500000 0.046538271 0.029598391
1257000000 0.046705771 0.029580047
1257500000 0.046861123 0.029560957
1258000000 0.047002807 0.02955642
1258500000 0.047161609 0.029520644
1259000000 0.047341194 0.029512124
1259500000 0.047493316 0.029480824
1260000000 0.047642887 0.029466849
1260500000 0.04779084 0.029427942
1261000000 0.047955263 0.029412741
1261500000 0.048115507 0.029385243
1262000000 0.048273638 0.029337835
1262500000 0.048439629 0.029326184
1263000000 0.048585467 0.029272696
1263500000 0.048748724 0.029238962
1264000000 0.048907056 0.029207125
1264500000 0.049066644 0.029171716
1265000000 0.049222324 0.029131971
1265500000 0.049377318 0.029087948
1266000000 0.049531773 0.029042186
1266500000 0.049702294 0.028999936
1267000000 0.049853448 0.028937591
1267500000 0.05001669 0.02890219
1268000000 0.050184496 0.02885117
1268500000 0.050338913 0.028802546
1269000000 0.050498694 0.02875812
1269500000 0.050648253 0.028686579
1270000000 0.050809227 0.028635891
1270500000 0.050979864 0.028595988
1271000000 0.051115468 0.028533122
1271500000 0.051293395 0.028467968
1272000000 0.051457498 0.028430453
