# GHZ S RI R 50
0.5	0.12224557	0.053995036	0.675072418729485	0.13149540688653	0.675072418729485	0.13149540688653	-0.0419907096300306	-0.0227184380612145
0.51	0.11959459	0.0439699780000001	0.682339895682898	0.090649693562837	0.682339895682898	0.090649693562837	-0.0418052935293325	-0.0189037598858246
0.52	0.11618102	0.034281768	0.687040786246518	0.049360355407553	0.687040786246518	0.049360355407553	-0.0411125015407625	-0.0152744550983443
0.53	0.1120974	0.025139179	0.68917740224901	0.00780313171842632	0.68917740224901	0.00780313171842632	-0.040284428686267	-0.0120066276753667
0.54	0.10726754	0.016506258	0.688779007601035	-0.0338509890155545	0.688779007601035	-0.0338509890155545	-0.0389463115759409	-0.00896705126884176
0.55	0.10189025	0.00848072770000002	0.685852505259948	-0.075451894766576	0.685852505259948	-0.075451894766576	-0.0374614843707135	-0.00626821261595611
0.56	0.095958084	0.00105263289999993	0.680359592041504	-0.116840140231976	0.680359592041504	-0.116840140231976	-0.0357556483644633	-0.00384043123504607
0.57	0.089550175	-0.00568386349999994	0.672310814703846	-0.157840775497114	0.672310814703846	-0.157840775497114	-0.0339922671422389	-0.00183939879849632
0.58	0.082668543	-0.011700358	0.661767946575131	-0.19830307272593	0.661767946575131	-0.19830307272593	-0.0320568957649902	-0.000110195460322482
0.59	0.0754479240000001	-0.0169964400000001	0.64873775464981	-0.238061040234457	0.64873775464981	-0.238061040234457	-0.0299789118706313	0.00132629028664755
0.6	0.067937024	-0.021542199	0.633321305212762	-0.276986608890031	0.633321305212762	-0.276986608890031	-0.0280615629749946	0.00240418481673893
0.61	0.0601995589999999	-0.025313316	0.615547154774647	-0.314917613318783	0.615547154774647	-0.314917613318783	-0.0260953379497862	0.00320900630048498
0.62	0.052288953	-0.0282702580000001	0.595414666224213	-0.351679020010826	0.595414666224213	-0.351679020010826	-0.0241745578339636	0.00369837920231519
0.63	0.044325259	-0.030476471	0.573153426991382	-0.387200545855064	0.573153426991382	-0.387200545855064	-0.022410524496142	0.00392590088742828
0.64	0.036310278	-0.03186914	0.548686402283106	-0.421257583052396	0.548686402283106	-0.421257583052396	-0.0207096023515974	0.00393213138536075
0.65	0.028381497	-0.032473784	0.522138446630421	-0.453731100253536	0.522138446630421	-0.453731100253536	-0.0190616358435718	0.00374195393095209
0.66	0.0205303729999999	-0.0323222840000001	0.493683271088708	-0.484553697871634	0.493683271088708	-0.484553697871634	-0.0177779519437516	0.00334379754411068
0.67	0.012886492	-0.0314140389999999	0.463363944521388	-0.513513707572573	0.463363944521388	-0.513513707572573	-0.0165406931126827	0.00280231993268459
0.68	0.00551624269999995	-0.029765079	0.431359057209492	-0.540600393199013	0.431359057209492	-0.540600393199013	-0.015543805660215	0.00224188303740863
0.69	-0.0015253816	-0.0274679209999999	0.397744891143396	-0.56564109014147	0.397744891143396	-0.56564109014147	-0.0146597295957892	0.00150242622979624
0.7	-0.00817704200000004	-0.02451583	0.362683642023356	-0.588592656881947	0.362683642023356	-0.588592656881947	-0.0140191471857507	0.000704256894069374
0.71	-0.014445144	-0.0209529359999999	0.326306551634471	-0.609343855876669	0.326306551634471	-0.609343855876669	-0.0136509831874729	-0.000122473493124192
0.72	-0.020173008	-0.016822167	0.288715487891524	-0.627825648306104	0.288715487891524	-0.627825648306104	-0.0134425047947066	-0.000903558610484238
0.73	-0.0254030430000001	-0.012185462	0.250114445214139	-0.643962115467014	0.250114445214139	-0.643962115467014	-0.0134020015912732	-0.00168569460747448
0.74	-0.0300732239999999	-0.00710820270000001	0.210612637663226	-0.657711983547886	0.210612637663226	-0.657711983547886	-0.0136687342478176	-0.0023851785264141
0.75	-0.034106031	-0.0016294381	0.170380466813975	-0.669036094389058	0.170380466813975	-0.669036094389058	-0.0139509740914775	-0.00301511021285515
0.76	-0.037502356	0.00416541150000001	0.129561655573496	-0.677884505305481	0.129561655573496	-0.677884505305481	-0.0144434886647869	-0.00353835980085002
0.77	-0.040254809	0.01021386	0.0883008244976057	-0.68419055052944	0.0883008244976057	-0.68419055052944	-0.0150808967399783	-0.00390264598911509
0.78	-0.0423303470000001	0.01647431	0.0467707055494463	-0.688010438820647	0.0467707055494463	-0.688010438820647	-0.0158242113034514	-0.00413244790553274
0.79	-0.0437246260000001	0.02287185	0.00510885490692494	-0.689293446422093	0.00510885490692494	-0.689293446422093	-0.0166904142065568	-0.004201941015284
0.8	-0.044415385	0.029306557	0.0365037644742646	0.688059020763363	0.0365037644742646	0.688059020763363	-0.01745156931873	-0.00403880895845053
0.81	-0.044422295	0.0357616509999999	0.0779479494725127	0.684308893556372	0.0779479494725127	0.684308893556372	-0.0183868603402175	-0.00369374061324222
0.82	-0.043776095	0.0421207290000001	0.119051889305144	0.678071934391405	0.119051889305144	0.678071934391405	-0.0193254939767563	-0.00322592096222372
0.83	-0.0424386299999999	0.0483503419999999	0.15966634807156	0.66935847186273	0.15966634807156	0.66935847186273	-0.0202616958280947	-0.00253861835104641
0.84	-0.0404865889999999	0.0543925869999999	0.19964293951163	0.658187809836035	0.19964293951163	0.658187809836035	-0.021217161045497	-0.00166392847538582
0.85	-0.037899677	0.060167681	0.238858991035132	0.64467985034623	0.238858991035132	0.64467985034623	-0.0220359840644625	-0.000601102295598871
0.86	-0.034754522	0.065631442	0.277177365032952	0.628863560558161	0.277177365032952	0.628863560558161	-0.0227560305659844	0.000557571197195489
0.87	-0.031050371	0.070717923	0.314452243920553	0.610813845097181	0.314452243920553	0.610813845097181	-0.0233678546905496	0.00196097151681443
0.88	-0.026849834	0.075399414	0.350528850912373	0.590510877034663	0.350528850912373	0.590510877034663	-0.0238258068090828	0.00346150624646516
0.89	-0.0222255199999999	0.0796006099999999	0.385321437640422	0.568127223376991	0.385321437640422	0.568127223376991	-0.0242780610892394	0.0050615980222658
0.9	-0.0171708	0.083317012	0.4186679422776	0.543702041665282	0.4186679422776	0.543702041665282	-0.0244335226975759	0.00686544920512862
0.91	-0.0117706450000001	0.0864749479999999	0.45048936845028	0.517333217058559	0.45048936845028	0.517333217058559	-0.0244666151946439	0.00877767709799349
0.92	-0.00608433549999995	0.0890925079999999	0.480635818688549	0.4890860132404	0.480635818688549	0.4890860132404	-0.0243646214296837	0.0106219484462413
0.93	-0.000159204360000054	0.091120973	0.509072039140023	0.459149068826888	0.509072039140023	0.459149068826888	-0.023897580937417	0.0125869904423405
0.94	0.00592161390000007	0.092537031	0.535643648177826	0.427548764767464	0.535643648177826	0.427548764767464	-0.0232844238142849	0.0145111990476446
0.95	0.0121277829999999	0.0933232979999999	0.560283334345825	0.394455349034903	0.560283334345825	0.394455349034903	-0.0224595775313098	0.016592716586312
0.96	0.0183649979999999	0.093491428	0.582861914460571	0.359920331285372	0.582861914460571	0.359920331285372	-0.0214590521646826	0.0185573064133115
0.97	0.024579726	0.0930313470000001	0.603300865975497	0.324095245073152	0.603300865975497	0.324095245073152	-0.0202208121485663	0.0205015365467052
0.98	0.0307290549999999	0.0919777679999999	0.621623471377421	0.287143531790453	0.621623471377421	0.287143531790453	-0.0188737096306246	0.0223221849041463
0.99	0.0367383360000001	0.090322465	0.637688888720586	0.249149946262885	0.637688888720586	0.249149946262885	-0.0172019005463413	0.0240795474024271
1	0.0425287969999998	0.088074468	0.651459818997929	0.210269838777622	0.651459818997929	0.210269838777622	-0.0153566374364542	0.0256990256601188
1.01	0.0480953269999999	0.085293785	0.662922480109982	0.170627657622578	0.662922480109982	0.170627657622578	-0.0133965019905758	0.0271900347307052
1.02	0.0533289129999998	0.0819869710000001	0.671955702707805	0.130361908538307	0.671955702707805	0.130361908538307	-0.0112417125291843	0.028492481516696
1.03	0.05818871	0.0781715589999999	0.678561320706416	0.089588325603823	0.678561320706416	0.089588325603823	-0.0090646058133268	0.0295876592785881
1.04	0.062651254	0.0739194599999999	0.682711156325901	0.048494223624873	0.682711156325901	0.048494223624873	-0.00669744505187897	0.0304974609104415
1.05	0.0666624460000001	0.0692402649999999	0.684399927112325	0.00722057359869145	0.684399927112325	0.00722057359869145	-0.0041971343913717	0.0312671728245217
1.06	0.0701735620000001	0.0642253160000002	0.683568800458574	-0.0341010174150709	0.683568800458574	-0.0341010174150709	-0.0016321210213962	0.0317780337312443
1.07	0.073155291	0.0589279830000001	0.680287345386862	-0.0753327642397424	0.680287345386862	-0.0753327642397424	0.00107079039698271	0.0320689209899675
1.08	0.0756155699999999	0.053360917	0.674526499662718	-0.116313932761662	0.674526499662718	-0.116313932761662	0.00362649622170486	0.0320739343289008
1.09	0.077478781	0.047614396	0.666320691697173	-0.156889917260761	0.666320691697173	-0.156889917260761	0.00637075085344496	0.0319547467458486
1.1	0.078756928	0.0417297780000001	0.655668090679106	-0.196930625546817	0.655668090679106	-0.196930625546817	0.00902817968717085	0.0315596586711245
1.11	0.079431288	0.0358003709999999	0.642584936599881	-0.236271359449246	0.642584936599881	-0.236271359449246	0.0115711753649962	0.0309099333688081
1.12	0.0795084609999998	0.0298656839999999	0.627161941760944	-0.274800161529504	0.627161941760944	-0.274800161529504	0.0140357473312549	0.0300383378575281
1.13	0.0789889920000001	0.023992511	0.609395673119107	-0.312329253684218	0.609395673119107	-0.312329253684218	0.0164521529762887	0.0289397214449506
1.14	0.077884704	0.018218189	0.589405614009245	-0.348763091497313	0.589405614009245	-0.348763091497313	0.0186920852613635	0.0277096223547845
1.15	0.076221749	0.0126503089999999	0.567209248650635	-0.383942131158198	0.567209248650635	-0.383942131158198	0.0208428511323757	0.0262593471040925
1.16	0.074006148	0.00732573030000001	0.54287841072792	-0.417707942767776	0.54287841072792	-0.417707942767776	0.0228889298243914	0.0246258201525186
1.17	0.071268603	0.00227814559999998	0.516582162301177	-0.450013555165564	0.516582162301177	-0.450013555165564	0.0245295153420512	0.0227768284586946
1.18	0.0680518519999999	-0.00239708619999998	0.488319721580073	-0.48065497635487	0.488319721580073	-0.48065497635487	0.0261563759633064	0.0208931858359566
1.19	0.064372398	-0.00669310750000006	0.458197844383039	-0.509536247381463	0.458197844383039	-0.509536247381463	0.0275179052712695	0.0188665057117073
1.2	0.060315054	-0.01053238	0.426353865465588	-0.536543508541063	0.426353865465588	-0.536543508541063	0.0287056899987407	0.0168259801364262
1.21	0.055891115	-0.0139008159999999	0.392884460783873	-0.561562186999668	0.392884460783873	-0.561562186999668	0.0296356859544297	0.014659400911691
1.22	0.051194068	-0.0167374869999999	0.357957436127763	-0.584559818074092	0.357957436127763	-0.584559818074092	0.0303001075367954	0.0125632315944728
1.23	0.046231784	-0.01903984	0.32164307534948	-0.605335816275885	0.32164307534948	-0.605335816275885	0.0307351484726942	0.0103627700809652
1.24	0.041101173	-0.0207728820000001	0.284096803576645	-0.623894621915956	0.284096803576645	-0.623894621915956	0.0309559740782354	0.00822187656959206
1.25	0.035833389	-0.021906873	0.245452778913545	-0.640095611641096	0.245452778913545	-0.640095611641096	0.0309302288791977	0.00614951898066229
1.26	0.0305113160000001	-0.022467289	0.205869008537908	-0.653900696590623	0.205869008537908	-0.653900696590623	0.0306007055698003	0.00413476412999028
1.27	0.025208695	-0.022402618	0.165476176747877	-0.665249180525152	0.165476176747877	-0.665249180525152	0.030179639456246	0.00231678556835282
1.28	0.019960465	-0.021760246	0.124462523955927	-0.674118892995158	0.124462523955927	-0.674118892995158	0.0294822660527018	0.000598766527754591
1.29	0.014848785	-0.0205392349999999	0.0829489417716199	-0.680437448297649	0.0829489417716199	-0.680437448297649	0.028710578518258	-0.000946646311943466
1.3	0.00993589960000011	-0.018748784	0.0411175506495095	-0.684169868460595	0.0411175506495095	-0.684169868460595	0.0276103111278121	-0.00239486584602708
1.31	0.00528429729999996	-0.016409887	0.00088140787584749	0.685353641098906	0.00088140787584749	0.685353641098906	0.0263608402181835	-0.00363643580221212
1.32	0.000926650479999985	-0.013553245	0.0428815126664423	0.683911063840731	0.0428815126664423	0.683911063840731	0.0251192624801414	-0.00459112212770085
1.33	-0.0030573285	-0.010228854	0.084728958112747	0.679901044251792	0.084728958112747	0.679901044251792	0.023817735095814	-0.0053883871548759
1.34	-0.00662377199999995	-0.0064864559000001	0.126239730602597	0.673288698742308	0.126239730602597	0.673288698742308	0.0223829082043906	-0.00591707697404102
1.35	-0.00972954929999998	-0.00232698999999988	0.167278242653655	0.664164370313423	0.167278242653655	0.664164370313423	0.0208717822822325	-0.0062544933614077
1.36	-0.012341499	0.00214403750000003	0.207667497297936	0.652466936860749	0.207667497297936	0.652466936860749	0.0192897908069718	-0.00635431381883597
1.37	-0.014402892	0.00691592509999998	0.247281713458529	0.638375614081444	0.247281713458529	0.638375614081444	0.0178297995858454	-0.00610626384975574
1.38	-0.015933605	0.011895398	0.285922731616959	0.621820388465289	0.285922731616959	0.621820388465289	0.0163282084899313	-0.00570369040364627
1.39	-0.016853524	0.017051551	0.323476656317722	0.602916882351068	0.323476656317722	0.602916882351068	0.0149426146096351	-0.00504822875237539
1.4	-0.017188793	0.0222957299999999	0.359758923389783	0.58170072838402	0.359758923389783	0.58170072838402	0.0137114644588884	-0.00416291811621672
1.41	-0.016917454	0.0275807659999999	0.39470656558578	0.55835965433157	0.39470656558578	0.55835965433157	0.0125627796721997	-0.00302258125240776
1.42	-0.016051361	0.032828797	0.428122231642359	0.532876441978876	0.428122231642359	0.532876441978876	0.0115454799324143	-0.0016971157307071
1.43	-0.0145657309999999	0.0379787499999999	0.459873413575317	0.505386856067325	0.459873413575317	0.505386856067325	0.0107346479306731	-0.000241250997186027
1.44	-0.0124891519999999	0.042974032	0.48986778079271	0.476000968786428	0.48986778079271	0.476000968786428	0.0100276446238973	0.00139077681608687
1.45	-0.00986679639999999	0.0477376389999999	0.518006772736194	0.444845000442627	0.518006772736194	0.444845000442627	0.0096241018495174	0.0032414786098223
1.46	-0.00668171139999993	0.0522360240000001	0.544176547226442	0.412036453046711	0.544176547226442	0.412036453046711	0.00938122289380233	0.0051439946031778
1.47	-0.00300063289999997	0.0563761440000001	0.568229988846603	0.377654801209409	0.568229988846603	0.377654801209409	0.00941281843458025	0.00715906170923675
1.48	0.00118391529999995	0.060148217	0.590107178346358	0.341872602545847	0.590107178346358	0.341872602545847	0.00959269414427627	0.00915728254462977
1.49	0.00576945770000006	0.0634688209999999	0.609816206152428	0.304870398306089	0.609816206152428	0.304870398306089	0.0101112779269251	0.0112627332331358
1.5	0.0107387550000001	0.066289321	0.627133038563761	0.266701727842732	0.627133038563761	0.266701727842732	0.0108331695577802	0.0133524154056853
1.51	0.016047055	0.068603083	0.642103323122665	0.227574469175026	0.642103323122665	0.227574469175026	0.0119592292496729	0.0154625657767895
1.52	0.021610234	0.0703531799999998	0.654593352458042	0.187591983869959	0.654593352458042	0.187591983869959	0.0133030709912393	0.0175412580827055
1.53	0.027407477	0.071508728	0.664675836742848	0.146940246053787	0.664675836742848	0.146940246053787	0.0147435704781711	0.019438246346366
1.54	0.0333423839999999	0.07207942	0.67220403978953	0.105762711312261	0.67220403978953	0.105762711312261	0.016489309046158	0.0212865335318016
1.55	0.03936898	0.072005622	0.677200514131634	0.0641994317271112	0.677200514131634	0.0641994317271112	0.0184940108104659	0.0230358956874232
1.56	0.045427285	0.071314149	0.679621962764038	0.0224225109030184	0.679621962764038	0.0224225109030184	0.0206990248096547	0.0246146456721165
1.57	0.051422164	0.069986932	0.679493914232403	-0.0194277008766839	0.679493914232403	-0.0194277008766839	0.0230855343504121	0.0260052288259901
1.58	0.057316139	0.0680597050000001	0.67681518859485	-0.0611819751574794	0.67681518859485	-0.0611819751574794	0.0256659258703438	0.0272435320435445
1.59	0.0630255189999999	0.0654984339999999	0.671567451087306	-0.102692190183141	0.671567451087306	-0.102692190183141	0.0283614699833917	0.0282626997379264
1.6	0.0685106139999999	0.0623562599999999	0.663784486488562	-0.143811305960298	0.663784486488562	-0.143811305960298	0.0312038375847949	0.0290339511049825
1.61	0.073696166	0.058658872	0.653474452986808	-0.18437106361402	0.653474452986808	-0.18437106361402	0.0341436698863089	0.029512722585634
1.62	0.078525104	0.0544364450000001	0.64075494445215	-0.224246770825992	0.64075494445215	-0.224246770825992	0.0371138380391425	0.0297961808853723
1.63	0.082937919	0.0496942920000001	0.625579200197548	-0.263264051961153	0.625579200197548	-0.263264051961153	0.040217784742842	0.0298819892368678
1.64	0.0868796709999999	0.0445105399999999	0.607991842729403	-0.301274578265933	0.607991842729403	-0.301274578265933	0.0433084598179947	0.0296747993250306
1.65	0.0903290959999999	0.038927604	0.588164784526437	-0.338168392115132	0.588164784526437	-0.338168392115132	0.0464409318870079	0.0291992712845374
1.66	0.093250342	0.033002689	0.566092221231267	-0.373777965959159	0.566092221231267	-0.373777965959159	0.0495170736833325	0.0284896563620367
1.67	0.095560208	0.026787944	0.541872338163398	-0.408019437993951	0.541872338163398	-0.408019437993951	0.0525220921701126	0.0274917050505012
1.68	0.0972616369999999	0.020343708	0.515527250601402	-0.440666517849497	0.515527250601402	-0.440666517849497	0.055444554564002	0.0262215531191917
1.69	0.098341204	0.0137339369999999	0.487237846578959	-0.471677873371521	0.487237846578959	-0.471677873371521	0.0582396085425755	0.0247980756811972
1.7	0.098770723	0.00701365479999996	0.457073606472944	-0.500902636860446	0.457073606472944	-0.500902636860446	0.0609548783154273	0.0231165440017779
1.71	0.098555267	0.000271867870000136	0.425134778691733	-0.528233438658718	0.425134778691733	-0.528233438658718	0.06348546696851	0.0212922866898656
1.72	0.097654834	-0.00643889609999995	0.391531156736424	-0.553540505484879	0.391531156736424	-0.553540505484879	0.0657592361794805	0.0192038378456998
1.73	0.096135072	-0.0130378890000001	0.35642391619452	-0.576791023378377	0.35642391619452	-0.576791023378377	0.068010510477325	0.0170747205911677
1.74	0.093961321	-0.019471429	0.319907202071956	-0.597806150914554	0.319907202071956	-0.597806150914554	0.0700211815138471	0.0147954570489218
1.75	0.0911803839999999	-0.025681762	0.282113034717985	-0.616536437026052	0.282113034717985	-0.616536437026052	0.0717927405980682	0.0123529931601576
1.76	0.087783508	-0.031599991	0.243193952636171	-0.632873882108935	0.243193952636171	-0.632873882108935	0.0733834406346583	0.00981004597806878
1.77	0.083844051	-0.037119027	0.203299204930073	-0.646847791736494	0.203299204930073	-0.646847791736494	0.0746887307647474	0.00723606548611716
1.78	0.0794216839999998	-0.0422703880000001	0.162583619080941	-0.658306275318521	0.162583619080941	-0.658306275318521	0.0758392683840425	0.00461089465118469
1.79	0.074465476	-0.0469384830000001	0.121172831644572	-0.667172496892386	0.121172831644572	-0.667172496892386	0.0767300443304135	0.00196100911906655
1.8	0.0690954180000001	-0.05107614	0.0792500395441877	-0.673473517727182	0.0792500395441877	-0.673473517727182	0.0773185015107612	-0.000687029588226806
1.81	0.0633866490000001	-0.0546766370000001	0.0369616395095963	-0.677153145865182	0.0369616395095963	-0.677153145865182	0.0777304943791272	-0.00332672800232592
1.82	0.0573575719999999	-0.05768666	0.00551632083113678	0.678166636295882	0.00551632083113678	0.678166636295882	0.0779221179368903	-0.00584497373749779
