# GHZ S RI R 50
0.5	0.12222563	0.053988285	0.67503445312725	0.129492725281744	0.67503445312725	0.129492725281744	-0.0407160847961727	-0.0255002586787594
0.51	0.11960243	0.043957178	0.682190811306706	0.0886219744214305	0.682190811306706	0.0886219744214305	-0.0406010939865679	-0.021741326441966
0.52	0.11615947	0.034278169	0.686757127897975	0.0473134232487181	0.686757127897975	0.0473134232487181	-0.0399312037985687	-0.01814135025119
0.53	0.11205177	0.0251319890000001	0.688815999689762	0.00575840426545459	0.688815999689762	0.00575840426545459	-0.0390386060106459	-0.0148683072415834
0.54	0.10726376	0.0165098070000001	0.688262334188442	-0.0359008498254405	0.688262334188442	-0.0359008498254405	-0.0378964058976347	-0.011926295002321
0.55	0.10190635	0.00846925189999992	0.685212885371444	-0.0774997187497703	0.685212885371444	-0.0774997187497703	-0.0364573717431225	-0.0092704356245763
0.56	0.095976502	0.00105588809999999	0.67960083877434	-0.118873424073407	0.67960083877434	-0.118873424073407	-0.0347936831666507	-0.0068766859089866
0.57	0.0895427759999999	-0.00568579789999993	0.671439994812007	-0.159870092709179	0.671439994812007	-0.159870092709179	-0.0330830839797355	-0.00489096021475655
0.58	0.082671851	-0.011714129	0.660740961584577	-0.200299290418803	0.660740961584577	-0.200299290418803	-0.0313258312123149	-0.00321659813048736
0.59	0.07545273	-0.017006051	0.647599246709171	-0.240041958940447	0.647599246709171	-0.240041958940447	-0.0293557338937026	-0.0018149356064226
0.6	0.067930616	-0.021534767	0.632029121348141	-0.27891554488906	0.632029121348141	-0.27891554488906	-0.0274479060016165	-0.000741818091141266
0.61	0.060190022	-0.02531415	0.614107689751723	-0.316784309211267	0.614107689751723	-0.316784309211267	-0.0256025472736045	4.60978271762946E-05
0.62	0.0522943510000001	-0.028268952	0.593879494712002	-0.353512441373365	0.593879494712002	-0.353512441373365	-0.023703319395328	0.000512066216978357
0.63	0.044315293	-0.03047603	0.571499793063086	-0.388953887391365	0.571499793063086	-0.388953887391365	-0.0219702258171807	0.000764997401831169
0.64	0.036309768	-0.0318698180000001	0.546928832492066	-0.422952342603211	0.546928832492066	-0.422952342603211	-0.0203625679519247	0.000686606128500244
0.65	0.0283785970000001	-0.032467742	0.520263381079473	-0.455350595672712	0.520263381079473	-0.455350595672712	-0.0188696525612696	0.000500532711254775
0.66	0.0205237140000001	-0.032305639	0.491678127163531	-0.486074637040482	0.491678127163531	-0.486074637040482	-0.0175584110157743	0.000144426135207598
0.67	0.0128807400000001	-0.031415865	0.461249542810862	-0.51494214018938	0.461249542810862	-0.51494214018938	-0.016501781002696	-0.000431649351153779
0.68	0.0055328561	-0.029783258	0.429118396759212	-0.541897978992696	0.429118396759212	-0.541897978992696	-0.0156078777651165	-0.00109667319867224
0.69	-0.0015214491	-0.0274596049999999	0.395412268854752	-0.566829125886618	0.395412268854752	-0.566829125886618	-0.0148655635613809	-0.00180935165228951
0.7	-0.00818437519999997	-0.024519129	0.360250665891289	-0.589653850392065	0.360250665891289	-0.589653850392065	-0.0143670683499973	-0.00257994204588735
0.71	-0.014448676	-0.020946162	0.323778286967221	-0.610281889737718	0.323778286967221	-0.610281889737718	-0.014050383231935	-0.00338447326085721
0.72	-0.02017243	-0.0168184969999999	0.286107685461309	-0.628595991772513	0.286107685461309	-0.628595991772513	-0.0139124392157962	-0.00419614389238239
0.73	-0.025404073	-0.012185922	0.247433435649742	-0.644603478619016	0.247433435649742	-0.644603478619016	-0.0140605633187412	-0.00497017557030933
0.74	-0.030057041	-0.00711523559999999	0.2078640564466	-0.658190485630928	0.2078640564466	-0.658190485630928	-0.0142901738933231	-0.00566459258874381
0.75	-0.034096982	-0.00162936819999998	0.167572743802316	-0.669341745646446	0.167572743802316	-0.669341745646446	-0.014746009021358	-0.00626173080184823
0.76	-0.037500311	0.00416531370000003	0.126703155463285	-0.678011963223367	0.126703155463285	-0.678011963223367	-0.0153716229484868	-0.00677452036722254
0.77	-0.040240202	0.010219062	0.085409042789975	-0.684180572315989	0.085409042789975	-0.684180572315989	-0.0160382991386582	-0.00713419370243077
0.78	-0.0423155199999999	0.016484577	0.0438520529559948	-0.687822997138143	0.0438520529559948	-0.687822997138143	-0.0168849556624197	-0.00727476270351796
0.79	-0.043710385	0.0228625570000001	0.00217455826459408	-0.688901474684176	0.00217455826459408	-0.688901474684176	-0.0177786791570316	-0.0073436805437771
0.8	-0.044406947	0.0292999599999999	0.0394383662053158	0.687489278525428	0.0394383662053158	0.687489278525428	-0.0186903012407544	-0.00717564231184914
0.81	-0.044415928	0.0357564840000001	0.0808849708676481	0.683554796217955	0.0808849708676481	0.683554796217955	-0.0196977075358348	-0.00682853664731119
0.82	-0.0437715459999999	0.042124409	0.121969161683256	0.677123192820167	0.121969161683256	0.677123192820167	-0.0206977235194191	-0.00628317311336887
0.83	-0.042436641	0.048353314	0.162563509730822	0.668239589683004	0.162563509730822	0.668239589683004	-0.0216758293075122	-0.00556693602920927
0.84	-0.0404693859999999	0.054377057	0.202500486680363	0.656889144039341	0.202500486680363	0.656889144039341	-0.0226633490185418	-0.0046287366482976
0.85	-0.037905999	0.060171243	0.241657960186125	0.643198224891732	0.241657960186125	0.643198224891732	-0.0235719397200662	-0.00357002941599169
0.86	-0.034745585	0.0656349140000002	0.279912594458032	0.62721839861514	0.279912594458032	0.62721839861514	-0.0242397293347825	-0.00232039509730797
0.87	-0.0310487640000001	0.070714243	0.317094923495962	0.608950528211857	0.317094923495962	0.608950528211857	-0.0249534992666554	-0.000915463807062922
0.88	-0.026850475	0.075393237	0.353077702873202	0.588459959307574	0.353077702873202	0.588459959307574	-0.0254529237349307	0.000589570801935335
0.89	-0.022212965	0.079609632	0.387757209760543	0.565901816855818	0.387757209760543	0.565901816855818	-0.0258847541137563	0.00232926175501982
0.9	-0.017162131	0.0833134499999999	0.421009577200269	0.541327860639313	0.421009577200269	0.541327860639313	-0.0261280013559461	0.0041593505485599
0.91	-0.0117675449999998	0.0864735470000001	0.452703058932155	0.514794808082859	0.452703058932155	0.514794808082859	-0.0261527426875944	0.00606976074320151
0.92	-0.00606867159999985	0.0890791270000001	0.482720897606866	0.486407887499781	0.482720897606866	0.486407887499781	-0.025949987401572	0.00806254351212479
0.93	-0.000151943470000027	0.0911001489999999	0.511011030502583	0.456307664693892	0.511011030502583	0.456307664693892	-0.0255927096371668	0.010020807584756
0.94	0.00592993709999995	0.092515618	0.537397810747734	0.424553587337074	0.537397810747734	0.424553587337074	-0.0249696667735896	0.0120126171741549
0.95	0.0121264800000001	0.093327962	0.561874498015224	0.391328761057707	0.561874498015224	0.391328761057707	-0.0242218823821623	0.0140691606467641
0.96	0.018366592	0.093498372	0.584277103969332	0.356678973126527	0.584277103969332	0.356678973126527	-0.023258369185631	0.0160335443598869
0.97	0.0245800260000001	0.093023174	0.60454759061561	0.320761150282102	0.60454759061561	0.320761150282102	-0.021950555038881	0.0181130001509229
0.98	0.030716272	0.0919666960000001	0.622652724906104	0.283697446599942	0.622652724906104	0.283697446599942	-0.0205715264680844	0.0199672115055242
0.99	0.036739603	0.090309098	0.638507993620806	0.245611614458209	0.638507993620806	0.245611614458209	-0.0190148631068903	0.0217489103686718
1	0.0425354800000001	0.0880781640000002	0.652079741167048	0.2066511191563	0.652079741167048	0.2066511191563	-0.0171258947388773	0.0233980218285035
1.01	0.0481003000000001	0.085302331	0.663359336384044	0.166953873528715	0.663359336384044	0.166953873528715	-0.0151001343410032	0.0249581538158914
1.02	0.053316671	0.0819753779999998	0.672170672670691	0.126626504959722	0.672170672670691	0.126626504959722	-0.0129394771688457	0.0263052441499245
1.03	0.0581902269999999	0.078168519	0.678556826575692	0.0858351948077136	0.678556826575692	0.0858351948077136	-0.010701353646807	0.0274599485556694
1.04	0.062641151	0.0738929060000001	0.682451167228246	0.0447129279827221	0.682451167228246	0.0447129279827221	-0.008268514539997	0.0284823780383785
1.05	0.066672496	0.0692448169999998	0.683892871755527	0.00341907882962709	0.683892871755527	0.00341907882962709	-0.00583121153516053	0.0291672349660237
1.06	0.070175134	0.0642248990000001	0.682843462230479	-0.0378989544390113	0.682843462230479	-0.0378989544390113	-0.00312808547167542	0.0297846507640753
1.07	0.073140047	0.058909044	0.679317410980345	-0.0791054285948932	0.679317410980345	-0.0791054285948932	-0.000563513247322567	0.0301374337589346
1.08	0.07558503	0.0533371829999999	0.673294145026042	-0.120046834759971	0.673294145026042	-0.120046834759971	0.00206452612016711	0.0302249891570768
1.09	0.077446833	0.047604743	0.664882918222761	-0.160571151206559	0.664882918222761	-0.160571151206559	0.00484811456074907	0.0301408282542963
1.1	0.0787253309999999	0.041719053	0.653969480013623	-0.200545916216223	0.653969480013623	-0.200545916216223	0.00746451401184695	0.0297709918361562
1.11	0.0794185620000001	0.035799284	0.640642770491821	-0.239801192892621	0.640642770491821	-0.239801192892621	0.0100506850869096	0.0291415521140851
1.12	0.079502486	0.029858485	0.625010068421014	-0.278229471156993	0.625010068421014	-0.278229471156993	0.0125434568910951	0.0282921636839285
1.13	0.078990415	0.023990106	0.607046283882561	-0.315665094386183	0.607046283882561	-0.315665094386183	0.0149865245430209	0.0272476598533518
1.14	0.0778889579999999	0.01823158	0.586825860252289	-0.351967306884281	0.586825860252289	-0.351967306884281	0.0172778459464197	0.026038379682049
1.15	0.076225154	0.0126476110000001	0.564424585249841	-0.38699594209283	0.564424585249841	-0.38699594209283	0.0193662715231506	0.0246188487431263
1.16	0.074010193	0.00732803670000001	0.539923764724995	-0.420633736192691	0.539923764724995	-0.420633736192691	0.0213723249954957	0.0230580095293338
1.17	0.0712762100000001	0.00228021180000001	0.513401407849402	-0.4527503730227	0.513401407849402	-0.4527503730227	0.0231817963370912	0.0212612239780559
1.18	0.0680555250000001	-0.00240375680000007	0.48495687977935	-0.483219231451655	0.48495687977935	-0.483219231451655	0.0247555439757759	0.0193861997459363
1.19	0.064382762	-0.00669066140000005	0.454661655477505	-0.511894410781446	0.454661655477505	-0.511894410781446	0.0261404838965038	0.0174335998471009
1.2	0.06032078	-0.010542044	0.422658881527742	-0.538705986061045	0.422658881527742	-0.538705986061045	0.0272440837611966	0.0153426955133725
1.21	0.0558974409999999	-0.013899737	0.38904918459413	-0.563534104325791	0.38904918459413	-0.563534104325791	0.0281855862414682	0.0132660227141189
1.22	0.051199812	-0.016742393	0.353977102356868	-0.586283270572085	0.353977102356868	-0.586283270572085	0.0288745336641485	0.0111723934554449
1.23	0.04623086	-0.019040031	0.317534515125284	-0.606846616915999	0.317534515125284	-0.606846616915999	0.0293122118882126	0.00905525865279377
1.24	0.04109095	-0.020763043	0.279887329525149	-0.625151510105926	0.279887329525149	-0.625151510105926	0.0294907767939377	0.00694654766093189
1.25	0.035834238	-0.021900253	0.241135802386434	-0.641080430771275	0.241135802386434	-0.641080430771275	0.029486384026176	0.00488933924134982
1.26	0.03051066	-0.0224625280000001	0.201482308834307	-0.654641581130569	0.201482308834307	-0.654641581130569	0.0292264885138459	0.0029144688370194
1.27	0.025212703	-0.022411417	0.161025702195308	-0.665710014932319	0.161025702195308	-0.665710014932319	0.0287909726109247	0.00110229628315092
1.28	0.0199682140000001	-0.0217592589999999	0.119961248251636	-0.674324136412234	0.119961248251636	-0.674324136412234	0.0280847923232779	-0.000598783305380379
1.29	0.0148496459999999	-0.020547403	0.0784194132166166	-0.680378939632348	0.0784194132166166	-0.680378939632348	0.0272847281591781	-0.00216142216528339
1.3	0.00994726359999992	-0.018750491	0.0365757744486209	-0.683823264082831	0.0365757744486209	-0.683823264082831	0.0263233037064604	-0.00352816141032747
1.31	0.00528969990000002	-0.0164174179999999	0.00542548356076782	0.684725319288289	0.00542548356076782	0.684725319288289	0.0251236936445489	-0.00474748907418249
1.32	0.000925313739999923	-0.0135600329999999	0.0473943459289652	0.682986300450294	0.0473943459289652	0.682986300450294	0.0238725658449086	-0.00570739760722874
1.33	-0.00304344579999997	-0.010238686	0.0892121646845635	0.678702762898367	0.0892121646845635	0.678702762898367	0.0226503792220634	-0.00642479175554751
1.34	-0.00662564859999992	-0.0064862925000001	0.13066567624152	0.671840423311586	0.13066567624152	0.671840423311586	0.0212127570441231	-0.0070041163899613
1.35	-0.00972646469999991	-0.00232482649999997	0.171648461388558	0.662430366034998	0.171648461388558	0.662430366034998	0.0197403925196563	-0.00729152367768825
1.36	-0.012332579	0.00214027470000005	0.21194209220471	0.650457642408095	0.21194209220471	0.650457642408095	0.018191453794632	-0.00739491464722425
1.37	-0.014395819	0.00691421699999994	0.251434519802213	0.636072236401508	0.251434519802213	0.636072236401508	0.0166751036623236	-0.00722500852571041
1.38	-0.0159301139999999	0.011901838	0.289964120863623	0.61927095537047	0.289964120863623	0.61927095537047	0.0153178468677022	-0.00677628890822056
1.39	-0.01685751	0.0170464030000001	0.327371379558571	0.600097578907212	0.327371379558571	0.600097578907212	0.0140727722416421	-0.00612547882162331
1.4	-0.017184867	0.022288168	0.363498956191748	0.578642472092731	0.363498956191748	0.578642472092731	0.0128658926986322	-0.00522918103546047
1.41	-0.016916683	0.0275841970000001	0.398278734460452	0.555061070594697	0.398278734460452	0.555061070594697	0.0118101441188653	-0.00414002517626989
1.42	-0.0160513629999999	0.03283488	0.431491334087498	0.529332595782607	0.431491334087498	0.529332595782607	0.0107679666940957	-0.00291490883605891
1.43	-0.0145669210000001	0.0379793159999999	0.463044403694384	0.501625506410224	0.463044403694384	0.501625506410224	0.010079475838522	-0.00144122024799689
1.44	-0.012490642	0.042971864	0.492835096491607	0.472051973253118	0.492835096491607	0.472051973253118	0.00948046631172994	0.000177268082493715
1.45	-0.00985898359999995	0.047751695	0.520742571851534	0.440691327308117	0.520742571851534	0.440691327308117	0.0091223942918684	0.00194625472634746
1.46	-0.00668000900000018	0.0522441119999999	0.546652285037356	0.407683219024074	0.546652285037356	0.407683219024074	0.00889616645112185	0.00378318508615902
1.47	-0.00300555679999992	0.0563916709999999	0.570469432508388	0.373144989154512	0.570469432508388	0.373144989154512	0.00899153644292217	0.00570854763655351
1.48	0.00117304839999988	0.0601393510000001	0.592070082786348	0.337211076756419	0.592070082786348	0.337211076756419	0.00937656842353429	0.00773466784089294
1.49	0.0057588783000001	0.0634596719999999	0.611483735866428	0.300055815269482	0.611483735866428	0.300055815269482	0.00998177887320184	0.00980641614392996
1.5	0.010731025	0.0662913990000001	0.628492162165712	0.261766443456465	0.628492162165712	0.261766443456465	0.0108252241787745	0.0118134892707579
1.51	0.016046073	0.068605788	0.643208508395111	0.222533958046487	0.643208508395111	0.222533958046487	0.0118267429546721	0.0137851377047294
1.52	0.0216196760000002	0.070357859	0.655436125898306	0.182482717896613	0.655436125898306	0.182482717896613	0.0132180575393041	0.0157663767640471
1.53	0.027400369	0.071503945	0.665192652233383	0.141763685890434	0.665192652233383	0.141763685890434	0.0148216770945444	0.017680479954455
1.54	0.033343788	0.072077543	0.672399832087341	0.100531648603002	0.672399832087341	0.100531648603002	0.0167065954545126	0.0194530892914827
1.55	0.039362162	0.071999371	0.677078466878052	0.0589320972431683	0.677078466878052	0.0589320972431683	0.0187112449629951	0.0210969284149793
1.56	0.045424957	0.071326919	0.679167536730476	0.0171417748805508	0.679167536730476	0.0171417748805508	0.020968310174073	0.0225373890007428
1.57	0.0514255089999998	0.069998756	0.678742085592027	-0.0246899208583979	0.678742085592027	-0.0246899208583979	0.0234409449497735	0.0238257593462695
1.58	0.057322621	0.06805101	0.675720690278371	-0.0664316475313041	0.675720690278371	-0.0664316475313041	0.0260224384466418	0.0249657573685781
1.59	0.063032381	0.0654950740000001	0.670139610505507	-0.107886492548253	0.670139610505507	-0.107886492548253	0.0287706428878867	0.0258564013936556
1.6	0.0685115230000001	0.0623579960000001	0.662030095932573	-0.148935780918419	0.662030095932573	-0.148935780918419	0.0316809061804483	0.0265244635181037
1.61	0.0736995939999999	0.0586627459999999	0.651403103013927	-0.189407751187589	0.651403103013927	-0.189407751187589	0.0346371963554208	0.0269357193118493
1.62	0.0785277110000001	0.054441243	0.638372856216387	-0.229172889566545	0.638372856216387	-0.229172889566545	0.0376795782313232	0.0271623761266955
1.63	0.0829319950000001	0.0496887149999999	0.622875263708709	-0.268063484979291	0.622875263708709	-0.268063484979291	0.0407176799930997	0.0270948891045708
1.64	0.086888224	0.044516366	0.604987736171975	-0.305914601075707	0.604987736171975	-0.305914601075707	0.0438970727358982	0.0267791070624634
1.65	0.090340912	0.038932551	0.584840520456183	-0.342630342782696	0.584840520456183	-0.342630342782696	0.0470274151113781	0.0261812983656206
1.66	0.0932596550000001	0.033008542	0.562485147815001	-0.378072193262288	0.562485147815001	-0.378072193262288	0.0500946868945945	0.0253495653106681
1.67	0.095577098	0.0267944	0.537979705660691	-0.412080845864205	0.537979705660691	-0.412080845864205	0.053141049068146	0.0242835881112216
1.68	0.097263917	0.0203480739999998	0.511392471378277	-0.444517652194409	0.511392471378277	-0.444517652194409	0.0560151680783956	0.0229393237129943
1.69	0.0983520450000001	0.0137321659999999	0.482837764795941	-0.475282033984055	0.482837764795941	-0.475282033984055	0.0588239889611959	0.0213626150103138
1.7	0.098781593	0.00702298010000008	0.452443906863237	-0.504265900031317	0.452443906863237	-0.504265900031317	0.0614676212086948	0.0196051548765379
1.71	0.0985689609999999	0.000272439120000079	0.420277034184883	-0.531321091005904	0.420277034184883	-0.531321091005904	0.0638905469033802	0.0176311739305141
1.72	0.0976808970000001	-0.00644481229999999	0.386476891466034	-0.556341619555095	0.386476891466034	-0.556341619555095	0.0662296050408655	0.0154770283858043
1.73	0.0961652249999999	-0.013036881	0.351174787274743	-0.579275605423735	0.351174787274743	-0.579275605423735	0.0683900419566536	0.0132273790556675
1.74	0.0939637650000001	-0.0194737609999999	0.314472046771508	-0.599951275796264	0.314472046771508	-0.599951275796264	0.070307971443173	0.0108297430284175
1.75	0.0911808610000001	-0.025682529	0.276548591136783	-0.618403181344698	0.276548591136783	-0.618403181344698	0.0719957105780592	0.00828269826945338
1.76	0.0878013669999999	-0.0315893179999999	0.237494163267822	-0.634400202149852	0.237494163267822	-0.634400202149852	0.0734613404733183	0.00564981234892248
1.77	0.0838574319999999	-0.03712948	0.197492970938188	-0.648019292919112	0.197492970938188	-0.648019292919112	0.0747429479565488	0.00297832208905457
1.78	0.079415351	-0.042271588	0.156665392542787	-0.659079144947517	0.156665392542787	-0.659079144947517	0.0757959346053918	0.00023903509662615
1.79	0.0744756090000001	-0.046940889	0.115196083541291	-0.667588786331638	0.115196083541291	-0.667588786331638	0.0765957392860881	-0.00251578241857137
1.8	0.0691130010000001	-0.0510945320000001	0.0732236530082695	-0.673524178218718	0.0732236530082695	-0.673524178218718	0.0771035411943003	-0.00527183083677391
1.81	0.0633793549999999	-0.054674327	0.0309075763024044	-0.676830757577029	0.0309075763024044	-0.676830757577029	0.0773780186808092	-0.00800326000228213
1.82	0.057351258	-0.057687309	0.0115647239768009	0.677448737525562	0.0115647239768009	0.677448737525562	0.0775192035072093	-0.0106144912701603
